***BUSMASTER Ver 3.2.2***
***PROTOCOL CAN***
***NOTE: PLEASE DO NOT EDIT THIS DOCUMENT***
***[START LOGGING SESSION]***
***START DATE AND TIME 25:1:2024 18:41:44:605***
***HEX***
***SYSTEM MODE***
***START CHANNEL BAUD RATE***
***CHANNEL 1 - PCAN-USB Driver Id 16 - 500000 bps***
***END CHANNEL BAUD RATE***
***START DATABASE FILES***
***C:\Users\Ieva\Desktop\ican_4404_Woodpecker_Detroit.DBF***
***C:\Users\Ieva\Desktop\Woodpecker_Detroit.DBF***
***END DATABASE FILES***
***<Time><Tx/Rx><Channel><CAN ID><Type><DLC><DataBytes>***
18:41:44:6391 Rx 1 0x225 s 8 7E 1E 00 40 03 5F 48 00 
18:41:44:6412 Rx 1 0x226 s 8 0B 32 00 40 03 68 47 00 
18:41:44:6891 Rx 1 0x225 s 8 7E 1E 00 40 03 5F 48 00 
18:41:44:6912 Rx 1 0x226 s 8 0B 32 00 40 03 68 47 00 
18:41:44:7391 Rx 1 0x225 s 8 7E 1E 00 40 03 5F 48 00 
18:41:44:7412 Rx 1 0x226 s 8 0B 32 00 40 03 68 47 00 
18:41:44:7891 Rx 1 0x225 s 8 7E 1E 00 40 03 5F 48 00 
18:41:44:7912 Rx 1 0x226 s 8 0B 32 00 40 03 68 47 00 
18:41:44:8391 Rx 1 0x225 s 8 7E 1E 00 40 03 5F 48 00 
18:41:44:8412 Rx 1 0x226 s 8 0B 32 00 40 03 68 47 00 
18:41:44:8891 Rx 1 0x225 s 8 7E 1E 00 40 03 5F 48 00 
18:41:44:8912 Rx 1 0x226 s 8 0B 32 00 40 03 68 47 00 
18:41:44:9391 Rx 1 0x225 s 8 7E 1E 00 40 03 5F 48 00 
18:41:44:9412 Rx 1 0x226 s 8 0B 32 00 40 03 68 47 00 
18:41:44:9891 Rx 1 0x225 s 8 7E 1E 00 40 03 5F 48 00 
18:41:44:9912 Rx 1 0x226 s 8 0B 32 00 40 03 68 47 00 
18:41:45:0391 Rx 1 0x225 s 8 7E 1E 00 40 03 5F 48 00 
18:41:45:0412 Rx 1 0x226 s 8 0B 32 00 40 03 68 47 00 
18:41:45:0891 Rx 1 0x225 s 8 7E 1E 00 40 03 5F 48 00 
18:41:45:0913 Rx 1 0x226 s 8 0B 32 00 40 03 68 47 00 
18:41:45:1391 Rx 1 0x225 s 8 7E 1E 00 40 03 5F 48 00 
18:41:45:1413 Rx 1 0x226 s 8 0B 32 00 80 03 68 47 00 
18:41:45:1891 Rx 1 0x225 s 8 7E 1E 00 40 03 5F 48 00 
18:41:45:1913 Rx 1 0x226 s 8 0B 32 00 80 03 68 47 00 
18:41:45:2391 Rx 1 0x225 s 8 7E 1E 00 40 03 5F 48 00 
18:41:45:2413 Rx 1 0x226 s 8 0B 32 00 80 03 68 47 00 
18:41:45:2892 Rx 1 0x225 s 8 7E 1E 00 40 03 5F 48 00 
18:41:45:2913 Rx 1 0x226 s 8 0B 32 00 80 03 68 47 00 
18:41:45:3392 Rx 1 0x225 s 8 7E 1E 00 40 03 5F 48 00 
18:41:45:3413 Rx 1 0x226 s 8 0B 32 00 80 03 68 47 00 
18:41:45:3892 Rx 1 0x225 s 8 7E 1E 00 40 03 5F 48 00 
18:41:45:3913 Rx 1 0x226 s 8 0B 32 00 80 03 68 47 00 
18:41:45:4392 Rx 1 0x225 s 8 7E 1E 00 40 03 5F 48 00 
18:41:45:4413 Rx 1 0x226 s 8 0B 32 00 80 03 68 47 00 
18:41:45:4892 Rx 1 0x225 s 8 7E 1E 00 40 03 5F 48 00 
18:41:45:4913 Rx 1 0x226 s 8 0B 32 00 80 03 67 47 00 
18:41:45:5392 Rx 1 0x225 s 8 7E 1E 00 40 03 5F 48 00 
18:41:45:5413 Rx 1 0x226 s 8 0B 32 00 80 03 66 47 00 
18:41:45:5892 Rx 1 0x225 s 8 7E 1E 00 40 03 5F 48 00 
18:41:45:5913 Rx 1 0x226 s 8 0B 32 00 80 03 64 47 00 
18:41:45:6392 Rx 1 0x225 s 8 7E 1E 00 40 03 5F 48 00 
18:41:45:6413 Rx 1 0x226 s 8 0B 32 00 80 03 61 47 00 
18:41:45:6892 Rx 1 0x225 s 8 7E 1E 00 40 03 5F 48 00 
18:41:45:6914 Rx 1 0x226 s 8 0B 32 00 80 03 5D 47 00 
18:41:45:7392 Rx 1 0x225 s 8 7E 1E 00 40 03 5F 48 00 
18:41:45:7414 Rx 1 0x226 s 8 0B 32 00 80 03 59 47 00 
18:41:45:7892 Rx 1 0x225 s 8 7E 1E 00 40 03 5F 48 00 
18:41:45:7914 Rx 1 0x226 s 8 0B 32 00 80 03 55 47 00 
18:41:45:8392 Rx 1 0x225 s 8 7E 1E 00 40 03 5F 48 00 
18:41:45:8414 Rx 1 0x226 s 8 0B 32 00 80 03 51 47 00 
18:41:45:8892 Rx 1 0x225 s 8 7E 1E 00 40 03 5F 48 00 
18:41:45:8914 Rx 1 0x226 s 8 0B 32 00 80 03 4C 47 00 
18:41:45:9393 Rx 1 0x225 s 8 7E 1E 00 40 03 5F 48 00 
18:41:45:9414 Rx 1 0x226 s 8 0B 32 00 80 03 47 47 00 
18:41:45:9893 Rx 1 0x225 s 8 7E 1E 00 40 03 5F 48 00 
18:41:45:9914 Rx 1 0x226 s 8 0B 32 00 80 03 43 47 00 
18:41:46:0393 Rx 1 0x225 s 8 7E 1E 00 40 03 5F 48 00 
18:41:46:0414 Rx 1 0x226 s 8 0B 32 00 80 03 40 47 00 
18:41:46:0893 Rx 1 0x225 s 8 7E 1E 00 40 03 5F 48 00 
18:41:46:0914 Rx 1 0x226 s 8 0B 32 00 80 03 3A 47 00 
18:41:46:1393 Rx 1 0x225 s 8 7E 1E 00 40 03 5F 48 00 
18:41:46:1414 Rx 1 0x226 s 8 0B 32 00 80 03 34 47 00 
18:41:46:1893 Rx 1 0x225 s 8 7E 1E 00 40 03 5F 48 00 
18:41:46:1915 Rx 1 0x226 s 8 0B 32 00 80 03 30 47 00 
18:41:46:2393 Rx 1 0x225 s 8 7E 1E 00 40 03 5F 48 00 
18:41:46:2415 Rx 1 0x226 s 8 0B 32 00 80 03 2B 47 00 
18:41:46:2893 Rx 1 0x225 s 8 7E 1E 00 40 03 5F 48 00 
18:41:46:2915 Rx 1 0x226 s 8 0B 32 00 80 03 25 47 00 
18:41:46:3393 Rx 1 0x225 s 8 7E 1E 00 40 03 5F 48 00 
18:41:46:3415 Rx 1 0x226 s 8 0B 32 00 00 03 30 47 00 
18:41:46:3893 Rx 1 0x225 s 8 7E 1E 00 40 03 5F 48 00 
18:41:46:3915 Rx 1 0x226 s 8 0B 32 00 40 03 70 47 00 
18:41:46:4393 Rx 1 0x225 s 8 7E 1E 00 40 03 5F 48 00 
18:41:46:4415 Rx 1 0x226 s 8 0B 32 00 40 03 69 47 00 
18:41:46:4893 Rx 1 0x225 s 8 7E 1E 00 40 03 5F 48 00 
18:41:46:4915 Rx 1 0x226 s 8 0B 32 00 40 03 68 47 00 
18:41:46:5393 Rx 1 0x225 s 8 7E 1E 00 40 03 5F 48 00 
18:41:46:5415 Rx 1 0x226 s 8 0B 32 00 40 03 68 47 00 
18:41:46:5894 Rx 1 0x225 s 8 7E 1E 00 40 03 5F 48 00 
18:41:46:5915 Rx 1 0x226 s 8 0B 32 00 40 03 68 47 00 
18:41:46:6394 Rx 1 0x225 s 8 7E 1E 00 80 03 5F 48 00 
18:41:46:6415 Rx 1 0x226 s 8 0B 32 00 40 03 68 47 00 
18:41:46:6894 Rx 1 0x225 s 8 7E 1E 00 80 03 5F 48 00 
18:41:46:6915 Rx 1 0x226 s 8 0B 32 00 40 03 68 47 00 
18:41:46:7394 Rx 1 0x225 s 8 7E 1E 00 80 03 5F 48 00 
18:41:46:7415 Rx 1 0x226 s 8 0B 32 00 40 03 68 47 00 
18:41:46:7894 Rx 1 0x225 s 8 7E 1E 00 80 03 5F 48 00 
18:41:46:7915 Rx 1 0x226 s 8 0B 32 00 40 03 68 47 00 
18:41:46:8394 Rx 1 0x225 s 8 7E 1E 00 80 03 5F 48 00 
18:41:46:8416 Rx 1 0x226 s 8 0B 32 00 40 03 68 47 00 
18:41:46:8894 Rx 1 0x225 s 8 7E 1E 00 80 03 5F 48 00 
18:41:46:8916 Rx 1 0x226 s 8 0B 32 00 40 03 68 47 00 
18:41:46:9394 Rx 1 0x225 s 8 7E 1E 00 80 03 5F 48 00 
18:41:46:9416 Rx 1 0x226 s 8 0B 32 00 40 03 68 47 00 
18:41:46:9894 Rx 1 0x225 s 8 7E 1E 00 80 03 5F 48 00 
18:41:46:9916 Rx 1 0x226 s 8 0B 32 00 40 03 68 47 00 
18:41:47:0394 Rx 1 0x225 s 8 7E 1E 00 80 03 5F 48 00 
18:41:47:0416 Rx 1 0x226 s 8 0B 32 00 40 03 68 47 00 
18:41:47:0894 Rx 1 0x225 s 8 7E 1E 00 80 03 5F 48 00 
18:41:47:0916 Rx 1 0x226 s 8 0B 32 00 40 03 68 47 00 
18:41:47:1394 Rx 1 0x225 s 8 7E 1E 00 80 03 5F 48 00 
18:41:47:1416 Rx 1 0x226 s 8 0B 32 00 40 03 68 47 00 
18:41:47:1895 Rx 1 0x225 s 8 7E 1E 00 80 03 5F 48 00 
18:41:47:1916 Rx 1 0x226 s 8 0B 32 00 40 03 68 47 00 
18:41:47:2395 Rx 1 0x225 s 8 7E 1E 00 80 03 5F 48 00 
18:41:47:2416 Rx 1 0x226 s 8 0B 32 00 40 03 68 47 00 
18:41:47:2895 Rx 1 0x225 s 8 7E 1E 00 80 03 5F 48 00 
18:41:47:2916 Rx 1 0x226 s 8 0B 32 00 40 03 68 47 00 
18:41:47:3395 Rx 1 0x225 s 8 7E 1E 00 80 03 5F 48 00 
18:41:47:3416 Rx 1 0x226 s 8 0B 32 00 40 03 68 47 00 
18:41:47:3895 Rx 1 0x225 s 8 7E 1E 00 80 03 5F 48 00 
18:41:47:3916 Rx 1 0x226 s 8 0B 32 00 40 03 68 47 00 
18:41:47:4395 Rx 1 0x225 s 8 7E 1E 00 80 03 5F 48 00 
18:41:47:4416 Rx 1 0x226 s 8 0B 32 00 40 03 68 47 00 
18:41:47:4896 Rx 1 0x225 s 8 7E 1E 00 80 03 5F 48 00 
18:41:47:4917 Rx 1 0x226 s 8 0B 32 00 40 03 68 47 00 
18:41:47:5396 Rx 1 0x225 s 8 7E 1E 00 80 03 5F 48 00 
18:41:47:5417 Rx 1 0x226 s 8 0B 32 00 40 03 68 47 00 
18:41:47:5896 Rx 1 0x225 s 8 7E 1E 00 80 03 5F 48 00 
18:41:47:5917 Rx 1 0x226 s 8 0B 32 00 40 03 68 47 00 
18:41:47:6396 Rx 1 0x225 s 8 7E 1E 00 80 03 60 48 00 
18:41:47:6417 Rx 1 0x226 s 8 0B 32 00 40 03 68 47 00 
18:41:47:6896 Rx 1 0x225 s 8 7E 1E 00 80 03 60 48 00 
18:41:47:6917 Rx 1 0x226 s 8 0B 32 00 40 03 68 47 00 
18:41:47:7396 Rx 1 0x225 s 8 7E 1E 00 80 03 61 48 00 
18:41:47:7417 Rx 1 0x226 s 8 0B 32 00 40 03 68 47 00 
18:41:47:7896 Rx 1 0x225 s 8 7E 1E 00 80 03 61 48 00 
18:41:47:7918 Rx 1 0x226 s 8 0B 32 00 40 03 68 47 00 
18:41:47:8396 Rx 1 0x225 s 8 7E 1E 00 80 03 63 48 00 
18:41:47:8418 Rx 1 0x226 s 8 0B 32 00 40 03 68 47 00 
18:41:47:8896 Rx 1 0x225 s 8 7E 1E 00 80 03 66 48 00 
18:41:47:8918 Rx 1 0x226 s 8 0B 32 00 40 03 68 47 00 
18:41:47:9396 Rx 1 0x225 s 8 7E 1E 00 80 03 6B 48 00 
18:41:47:9418 Rx 1 0x226 s 8 0B 32 00 40 03 68 47 00 
18:41:47:9896 Rx 1 0x225 s 8 7E 1E 00 80 03 6D 48 00 
18:41:47:9918 Rx 1 0x226 s 8 0B 32 00 40 03 68 47 00 
18:41:48:0396 Rx 1 0x225 s 8 7E 1E 00 80 03 6F 48 00 
18:41:48:0418 Rx 1 0x226 s 8 0B 32 00 40 03 68 47 00 
18:41:48:0896 Rx 1 0x225 s 8 7E 1E 00 80 03 70 48 00 
18:41:48:0918 Rx 1 0x226 s 8 0B 32 00 40 03 68 47 00 
18:41:48:1397 Rx 1 0x225 s 8 7E 1E 00 80 03 71 48 00 
18:41:48:1418 Rx 1 0x226 s 8 0B 32 00 40 03 68 47 00 
18:41:48:1897 Rx 1 0x225 s 8 7E 1E 00 80 03 72 48 00 
18:41:48:1918 Rx 1 0x226 s 8 0B 32 00 40 03 68 47 00 
18:41:48:2397 Rx 1 0x225 s 8 7E 1E 00 80 03 73 48 00 
18:41:48:2418 Rx 1 0x226 s 8 0B 32 00 40 03 68 47 00 
18:41:48:2897 Rx 1 0x225 s 8 7E 1E 00 80 03 74 48 00 
18:41:48:2918 Rx 1 0x226 s 8 0B 32 00 40 03 68 47 00 
18:41:48:3397 Rx 1 0x225 s 8 7E 1E 00 80 03 75 48 00 
18:41:48:3418 Rx 1 0x226 s 8 0B 32 00 40 03 68 47 00 
18:41:48:3897 Rx 1 0x225 s 8 7E 1E 00 80 03 76 48 00 
18:41:48:3919 Rx 1 0x226 s 8 0B 32 00 40 03 68 47 00 
18:41:48:4397 Rx 1 0x225 s 8 7E 1E 00 80 03 79 48 00 
18:41:48:4419 Rx 1 0x226 s 8 0B 32 00 40 03 68 47 00 
18:41:48:4897 Rx 1 0x225 s 8 7E 1E 00 80 03 7C 48 00 
18:41:48:4918 Rx 1 0x226 s 8 0B 32 00 80 03 68 47 00 
18:41:48:5397 Rx 1 0x225 s 8 7E 1E 00 80 03 7F 48 00 
18:41:48:5419 Rx 1 0x226 s 8 0B 32 00 80 03 68 47 00 
18:41:48:5897 Rx 1 0x225 s 8 7E 1E 00 80 03 82 48 00 
18:41:48:5919 Rx 1 0x226 s 8 0B 32 00 80 03 68 47 00 
18:41:48:6397 Rx 1 0x225 s 8 7E 1E 00 80 03 84 48 00 
18:41:48:6419 Rx 1 0x226 s 8 0B 32 00 80 03 68 47 00 
18:41:48:6897 Rx 1 0x225 s 8 7E 1E 00 80 03 86 48 00 
18:41:48:6919 Rx 1 0x226 s 8 0B 32 00 80 03 68 47 00 
18:41:48:7397 Rx 1 0x225 s 8 7E 1E 00 80 03 88 48 00 
18:41:48:7419 Rx 1 0x226 s 8 0B 32 00 80 03 68 47 00 
18:41:48:7897 Rx 1 0x225 s 8 7E 1E 00 80 03 8B 48 00 
18:41:48:7919 Rx 1 0x226 s 8 0B 32 00 80 03 68 47 00 
18:41:48:8397 Rx 1 0x225 s 8 7E 1E 00 80 03 90 48 00 
18:41:48:8419 Rx 1 0x226 s 8 0B 32 00 80 03 67 47 00 
18:41:48:8898 Rx 1 0x225 s 8 7E 1E 00 80 03 94 48 00 
18:41:48:8919 Rx 1 0x226 s 8 0B 32 00 80 03 65 47 00 
18:41:48:9398 Rx 1 0x225 s 8 7E 1E 00 80 03 97 48 00 
18:41:48:9419 Rx 1 0x226 s 8 0B 32 00 80 03 63 47 00 
18:41:48:9898 Rx 1 0x225 s 8 7E 1E 00 80 03 9A 48 00 
18:41:48:9919 Rx 1 0x226 s 8 0B 32 00 80 03 5E 47 00 
18:41:49:0398 Rx 1 0x225 s 8 7E 1E 00 40 03 59 48 00 
18:41:49:0419 Rx 1 0x226 s 8 0B 32 00 80 03 5A 47 00 
18:41:49:0898 Rx 1 0x225 s 8 7E 1E 00 40 03 5C 48 00 
18:41:49:0919 Rx 1 0x226 s 8 0B 32 00 80 03 57 47 00 
18:41:49:1398 Rx 1 0x225 s 8 7E 1E 00 40 03 5F 48 00 
18:41:49:1420 Rx 1 0x226 s 8 0B 32 00 80 03 53 47 00 
18:41:49:1898 Rx 1 0x225 s 8 7E 1E 00 40 03 5F 48 00 
18:41:49:1920 Rx 1 0x226 s 8 0B 32 00 80 03 4F 47 00 
18:41:49:2398 Rx 1 0x225 s 8 7E 1E 00 40 03 5F 48 00 
18:41:49:2420 Rx 1 0x226 s 8 0B 32 00 80 03 49 47 00 
18:41:49:2898 Rx 1 0x225 s 8 7E 1E 00 40 03 5F 48 00 
18:41:49:2920 Rx 1 0x226 s 8 0B 32 00 80 03 45 47 00 
18:41:49:3398 Rx 1 0x225 s 8 7E 1E 00 40 03 5F 48 00 
18:41:49:3420 Rx 1 0x226 s 8 0B 32 00 80 03 42 47 00 
18:41:49:3898 Rx 1 0x225 s 8 7E 1E 00 40 03 5F 48 00 
18:41:49:3920 Rx 1 0x226 s 8 0B 32 00 80 03 3E 47 00 
18:41:49:4398 Rx 1 0x225 s 8 7E 1E 00 40 03 5F 48 00 
18:41:49:4420 Rx 1 0x226 s 8 0B 32 00 80 03 38 47 00 
18:41:49:4899 Rx 1 0x225 s 8 7E 1E 00 40 03 5F 48 00 
18:41:49:4921 Rx 1 0x226 s 8 0B 32 00 80 03 32 47 00 
18:41:49:5399 Rx 1 0x225 s 8 7E 1E 00 40 03 5F 48 00 
18:41:49:5421 Rx 1 0x226 s 8 0B 32 00 80 03 2E 47 00 
18:41:49:5899 Rx 1 0x225 s 8 7E 1E 00 40 03 5F 48 00 
18:41:49:5921 Rx 1 0x226 s 8 0B 32 00 80 03 29 47 00 
18:41:49:6399 Rx 1 0x225 s 8 7E 1E 00 40 03 5F 48 00 
18:41:49:6421 Rx 1 0x226 s 8 0B 32 00 80 03 24 47 00 
18:41:49:6899 Rx 1 0x225 s 8 7E 1E 00 40 03 5F 48 00 
18:41:49:6921 Rx 1 0x226 s 8 0B 32 00 00 03 A4 47 00 
18:41:49:7399 Rx 1 0x225 s 8 7E 1E 00 40 03 5F 48 00 
18:41:49:7420 Rx 1 0x226 s 8 F4 31 01 40 03 80 47 00 
18:41:49:7899 Rx 1 0x225 s 8 7E 1E 00 40 03 5F 48 00 
18:41:49:7921 Rx 1 0x226 s 8 F4 31 00 40 03 5B 47 00 
18:41:49:8399 Rx 1 0x225 s 8 7E 1E 00 40 03 5F 48 00 
18:41:49:8421 Rx 1 0x226 s 8 F4 31 00 40 03 61 47 00 
18:41:49:8899 Rx 1 0x225 s 8 7E 1E 00 40 03 5F 48 00 
18:41:49:8921 Rx 1 0x226 s 8 F4 31 00 40 03 61 47 00 
18:41:49:9400 Rx 1 0x225 s 8 7E 1E 00 40 03 5F 48 00 
18:41:49:9421 Rx 1 0x226 s 8 F4 31 00 40 03 61 47 00 
18:41:49:9900 Rx 1 0x225 s 8 7E 1E 00 40 03 5F 48 00 
18:41:49:9921 Rx 1 0x226 s 8 F4 31 00 40 03 61 47 00 
18:41:50:0400 Rx 1 0x225 s 8 7E 1E 00 40 03 5F 48 00 
18:41:50:0421 Rx 1 0x226 s 8 F4 31 00 40 03 61 47 00 
18:41:50:0900 Rx 1 0x225 s 8 7E 1E 00 40 03 5F 48 00 
18:41:50:0921 Rx 1 0x226 s 8 F4 31 00 40 03 61 47 00 
18:41:50:1400 Rx 1 0x225 s 8 7E 1E 00 40 03 5F 48 00 
18:41:50:1421 Rx 1 0x226 s 8 F4 31 00 40 03 61 47 00 
18:41:50:1900 Rx 1 0x225 s 8 7E 1E 00 40 03 5F 48 00 
18:41:50:1921 Rx 1 0x226 s 8 F4 31 00 40 03 61 47 00 
18:41:50:2400 Rx 1 0x225 s 8 7E 1E 00 40 03 5F 48 00 
18:41:50:2421 Rx 1 0x226 s 8 F4 31 00 40 03 61 47 00 
18:41:50:2900 Rx 1 0x225 s 8 7E 1E 00 40 03 5F 48 00 
18:41:50:2922 Rx 1 0x226 s 8 F4 31 00 40 03 61 47 00 
18:41:50:3400 Rx 1 0x225 s 8 7E 1E 00 40 03 5F 48 00 
18:41:50:3422 Rx 1 0x226 s 8 F4 31 00 40 03 61 47 00 
18:41:50:3900 Rx 1 0x225 s 8 7E 1E 00 40 03 5F 48 00 
18:41:50:3922 Rx 1 0x226 s 8 F4 31 00 40 03 61 47 00 
18:41:50:4400 Rx 1 0x225 s 8 7E 1E 00 40 03 5F 48 00 
18:41:50:4422 Rx 1 0x226 s 8 F4 31 00 40 03 61 47 00 
18:41:50:4900 Rx 1 0x225 s 8 7E 1E 00 40 03 5F 48 00 
18:41:50:4922 Rx 1 0x226 s 8 F4 31 00 40 03 61 47 00 
18:41:50:5400 Rx 1 0x225 s 8 7E 1E 00 40 03 5F 48 00 
18:41:50:5422 Rx 1 0x226 s 8 F4 31 00 40 03 61 47 00 
18:41:50:5900 Rx 1 0x225 s 8 7E 1E 00 40 03 5F 48 00 
18:41:50:5922 Rx 1 0x226 s 8 F4 31 00 40 03 61 47 00 
18:41:50:6401 Rx 1 0x225 s 8 7E 1E 00 40 03 5F 48 00 
18:41:50:6422 Rx 1 0x226 s 8 F4 31 00 40 03 61 47 00 
18:41:50:6901 Rx 1 0x225 s 8 7E 1E 00 40 03 5F 48 00 
18:41:50:6922 Rx 1 0x226 s 8 F4 31 00 40 03 61 47 00 
18:41:50:7401 Rx 1 0x225 s 8 7E 1E 00 40 03 5F 48 00 
18:41:50:7422 Rx 1 0x226 s 8 F4 31 00 40 03 61 47 00 
18:41:50:7901 Rx 1 0x225 s 8 7E 1E 00 40 03 5F 48 00 
18:41:50:7922 Rx 1 0x226 s 8 F4 31 00 40 03 61 47 00 
18:41:50:8401 Rx 1 0x225 s 8 7E 1E 00 40 03 5F 48 00 
18:41:50:8422 Rx 1 0x226 s 8 F4 31 00 40 03 61 47 00 
18:41:50:8901 Rx 1 0x225 s 8 7E 1E 00 40 03 5F 48 00 
18:41:50:8922 Rx 1 0x226 s 8 F4 31 00 40 03 61 47 00 
18:41:50:9401 Rx 1 0x225 s 8 7E 1E 00 40 03 5F 48 00 
18:41:50:9423 Rx 1 0x226 s 8 F4 31 00 40 03 61 47 00 
18:41:50:9901 Rx 1 0x225 s 8 7E 1E 00 40 03 5F 48 00 
18:41:50:9923 Rx 1 0x226 s 8 F4 31 00 40 03 61 47 00 
18:41:51:0401 Rx 1 0x225 s 8 7E 1E 00 40 03 5F 48 00 
18:41:51:0423 Rx 1 0x226 s 8 F4 31 00 40 03 61 47 00 
18:41:51:0901 Rx 1 0x225 s 8 7E 1E 00 40 03 5F 48 00 
18:41:51:0923 Rx 1 0x226 s 8 F4 31 00 40 03 61 47 00 
18:41:51:1401 Rx 1 0x225 s 8 7E 1E 00 80 03 5F 48 00 
18:41:51:1423 Rx 1 0x226 s 8 F4 31 00 40 03 61 47 00 
18:41:51:1901 Rx 1 0x225 s 8 7E 1E 00 80 03 5F 48 00 
18:41:51:1923 Rx 1 0x226 s 8 F4 31 00 40 03 61 47 00 
18:41:51:2401 Rx 1 0x225 s 8 7E 1E 00 80 03 5F 48 00 
18:41:51:2423 Rx 1 0x226 s 8 F4 31 00 40 03 61 47 00 
18:41:51:2901 Rx 1 0x225 s 8 7E 1E 00 80 03 5F 48 00 
18:41:51:2923 Rx 1 0x226 s 8 F4 31 00 40 03 61 47 00 
18:41:51:3402 Rx 1 0x225 s 8 7E 1E 00 80 03 5F 48 00 
18:41:51:3423 Rx 1 0x226 s 8 F4 31 00 40 03 61 47 00 
18:41:51:3902 Rx 1 0x225 s 8 7E 1E 00 80 03 5F 48 00 
18:41:51:3923 Rx 1 0x226 s 8 F4 31 00 40 03 61 47 00 
18:41:51:4402 Rx 1 0x225 s 8 7E 1E 00 80 03 5F 48 00 
18:41:51:4423 Rx 1 0x226 s 8 F4 31 00 40 03 61 47 00 
18:41:51:4902 Rx 1 0x225 s 8 7E 1E 00 80 03 5F 48 00 
18:41:51:4923 Rx 1 0x226 s 8 F4 31 00 40 03 61 47 00 
18:41:51:5402 Rx 1 0x225 s 8 7E 1E 00 80 03 5F 48 00 
18:41:51:5424 Rx 1 0x226 s 8 F4 31 00 40 03 61 47 00 
18:41:51:5902 Rx 1 0x225 s 8 7E 1E 00 80 03 5F 48 00 
18:41:51:5924 Rx 1 0x226 s 8 F4 31 00 40 03 61 47 00 
18:41:51:6402 Rx 1 0x225 s 8 7E 1E 00 80 03 5F 48 00 
18:41:51:6424 Rx 1 0x226 s 8 F4 31 00 40 03 61 47 00 
18:41:51:6902 Rx 1 0x225 s 8 7E 1E 00 80 03 5F 48 00 
18:41:51:6924 Rx 1 0x226 s 8 F4 31 00 40 03 61 47 00 
18:41:51:7402 Rx 1 0x225 s 8 7E 1E 00 80 03 5F 48 00 
18:41:51:7424 Rx 1 0x226 s 8 F4 31 00 40 03 61 47 00 
18:41:51:7902 Rx 1 0x225 s 8 7E 1E 00 80 03 5F 48 00 
18:41:51:7924 Rx 1 0x226 s 8 F4 31 00 40 03 61 47 00 
18:41:51:8402 Rx 1 0x225 s 8 7E 1E 00 80 03 5F 48 00 
18:41:51:8424 Rx 1 0x226 s 8 F4 31 00 40 03 61 47 00 
18:41:51:8902 Rx 1 0x225 s 8 7E 1E 00 80 03 5F 48 00 
18:41:51:8924 Rx 1 0x226 s 8 F4 31 00 80 03 50 47 00 
18:41:51:9402 Rx 1 0x225 s 8 7E 1E 00 80 03 5F 48 00 
18:41:51:9424 Rx 1 0x226 s 8 F4 31 00 80 03 2A 47 00 
18:41:51:9903 Rx 1 0x225 s 8 7E 1E 00 80 03 5F 48 00 
18:41:51:9925 Rx 1 0x226 s 8 F7 31 03 80 03 08 47 00 
18:41:52:0403 Rx 1 0x225 s 8 7E 1E 00 80 03 5F 48 00 
18:41:52:0425 Rx 1 0x226 s 8 06 32 06 80 03 08 47 00 
18:41:52:0903 Rx 1 0x225 s 8 7E 1E 00 80 03 5F 48 00 
18:41:52:0925 Rx 1 0x226 s 8 0B 32 01 80 03 08 47 00 
18:41:52:1403 Rx 1 0x225 s 8 7E 1E 00 80 03 60 48 00 
18:41:52:1425 Rx 1 0x226 s 8 0C 32 00 80 03 08 47 00 
18:41:52:1903 Rx 1 0x225 s 8 7E 1E 00 80 03 60 48 00 
18:41:52:1925 Rx 1 0x226 s 8 0C 32 00 80 03 08 47 00 
18:41:52:2403 Rx 1 0x225 s 8 7E 1E 00 80 03 60 48 00 
18:41:52:2425 Rx 1 0x226 s 8 0C 32 00 00 03 15 47 00 
18:41:52:2903 Rx 1 0x225 s 8 7E 1E 00 80 03 61 48 00 
18:41:52:2925 Rx 1 0x226 s 8 0C 32 00 40 03 71 47 00 
18:41:52:3403 Rx 1 0x225 s 8 7E 1E 00 80 03 63 48 00 
18:41:52:3425 Rx 1 0x226 s 8 0C 32 00 40 03 69 47 00 
18:41:52:3903 Rx 1 0x225 s 8 7E 1E 00 80 03 65 48 00 
18:41:52:3925 Rx 1 0x226 s 8 0C 32 00 40 03 69 47 00 
18:41:52:4403 Rx 1 0x225 s 8 7E 1E 00 80 03 69 48 00 
18:41:52:4425 Rx 1 0x226 s 8 0C 32 00 40 03 69 47 00 
18:41:52:4903 Rx 1 0x225 s 8 7E 1E 00 80 03 6D 48 00 
18:41:52:4925 Rx 1 0x226 s 8 0C 32 00 40 03 69 47 00 
18:41:52:5403 Rx 1 0x225 s 8 7E 1E 00 80 03 6F 48 00 
18:41:52:5425 Rx 1 0x226 s 8 0C 32 00 40 03 69 47 00 
18:41:52:5904 Rx 1 0x225 s 8 7E 1E 00 80 03 70 48 00 
18:41:52:5925 Rx 1 0x226 s 8 0C 32 00 40 03 69 47 00 
18:41:52:6404 Rx 1 0x225 s 8 7E 1E 00 80 03 71 48 00 
18:41:52:6425 Rx 1 0x226 s 8 0C 32 00 40 03 69 47 00 
18:41:52:6904 Rx 1 0x225 s 8 7E 1E 00 80 03 72 48 00 
18:41:52:6925 Rx 1 0x226 s 8 0C 32 00 40 03 69 47 00 
18:41:52:7404 Rx 1 0x225 s 8 7E 1E 00 80 03 73 48 00 
18:41:52:7425 Rx 1 0x226 s 8 0C 32 00 40 03 69 47 00 
18:41:52:7904 Rx 1 0x225 s 8 7E 1E 00 80 03 74 48 00 
18:41:52:7926 Rx 1 0x226 s 8 0C 32 00 40 03 69 47 00 
18:41:52:8404 Rx 1 0x225 s 8 7E 1E 00 80 03 75 48 00 
18:41:52:8426 Rx 1 0x226 s 8 0C 32 00 40 03 69 47 00 
18:41:52:8904 Rx 1 0x225 s 8 7E 1E 00 80 03 76 48 00 
18:41:52:8926 Rx 1 0x226 s 8 0C 32 00 40 03 69 47 00 
18:41:52:9404 Rx 1 0x225 s 8 7E 1E 00 80 03 78 48 00 
18:41:52:9426 Rx 1 0x226 s 8 0C 32 00 40 03 69 47 00 
18:41:52:9904 Rx 1 0x225 s 8 7E 1E 00 80 03 7A 48 00 
18:41:52:9926 Rx 1 0x226 s 8 0C 32 00 40 03 69 47 00 
18:41:53:0404 Rx 1 0x225 s 8 7E 1E 00 80 03 7E 48 00 
18:41:53:0426 Rx 1 0x226 s 8 0C 32 00 40 03 69 47 00 
18:41:53:0904 Rx 1 0x225 s 8 7E 1E 00 80 03 81 48 00 
18:41:53:0926 Rx 1 0x226 s 8 0C 32 00 40 03 69 47 00 
18:41:53:1405 Rx 1 0x225 s 8 7E 1E 00 80 03 83 48 00 
18:41:53:1426 Rx 1 0x226 s 8 0C 32 00 40 03 69 47 00 
18:41:53:1904 Rx 1 0x225 s 8 7E 1E 00 80 03 85 48 00 
18:41:53:1926 Rx 1 0x226 s 8 0C 32 00 40 03 69 47 00 
18:41:53:2405 Rx 1 0x225 s 8 7E 1E 00 80 03 87 48 00 
18:41:53:2426 Rx 1 0x226 s 8 0C 32 00 40 03 69 47 00 
18:41:53:2905 Rx 1 0x225 s 8 7E 1E 00 80 03 8A 48 00 
18:41:53:2926 Rx 1 0x226 s 8 0C 32 00 40 03 69 47 00 
18:41:53:3405 Rx 1 0x225 s 8 7E 1E 00 80 03 8E 48 00 
18:41:53:3426 Rx 1 0x226 s 8 0C 32 00 40 03 69 47 00 
18:41:53:3905 Rx 1 0x225 s 8 7E 1E 00 80 03 92 48 00 
18:41:53:3927 Rx 1 0x226 s 8 0C 32 00 40 03 69 47 00 
18:41:53:4405 Rx 1 0x225 s 8 7E 1E 00 80 03 96 48 00 
18:41:53:4427 Rx 1 0x226 s 8 0C 32 00 40 03 69 47 00 
18:41:53:4905 Rx 1 0x225 s 8 7E 1E 00 80 03 99 48 00 
18:41:53:4927 Rx 1 0x226 s 8 0C 32 00 40 03 69 47 00 
18:41:53:5406 Rx 1 0x225 s 8 7E 1E 00 00 03 8F 48 00 
18:41:53:5427 Rx 1 0x226 s 8 0C 32 00 40 03 69 47 00 
18:41:53:5906 Rx 1 0x225 s 8 7E 1E 00 40 03 59 48 00 
18:41:53:5927 Rx 1 0x226 s 8 0C 32 00 40 03 69 47 00 
18:41:53:6406 Rx 1 0x225 s 8 7E 1E 00 40 03 5E 48 00 
18:41:53:6427 Rx 1 0x226 s 8 0C 32 00 40 03 69 47 00 
18:41:53:6906 Rx 1 0x225 s 8 7E 1E 00 40 03 5F 48 00 
18:41:53:6927 Rx 1 0x226 s 8 0C 32 00 40 03 69 47 00 
18:41:53:7406 Rx 1 0x225 s 8 7E 1E 00 40 03 5F 48 00 
18:41:53:7427 Rx 1 0x226 s 8 0C 32 00 40 03 69 47 00 
18:41:53:7906 Rx 1 0x225 s 8 7E 1E 00 40 03 5F 48 00 
18:41:53:7928 Rx 1 0x226 s 8 0C 32 00 40 03 69 47 00 
18:41:53:8406 Rx 1 0x225 s 8 7E 1E 00 40 03 5F 48 00 
18:41:53:8428 Rx 1 0x226 s 8 0C 32 00 40 03 69 47 00 
18:41:53:8906 Rx 1 0x225 s 8 7E 1E 00 40 03 5F 48 00 
18:41:53:8928 Rx 1 0x226 s 8 0C 32 00 40 03 69 47 00 
18:41:53:9406 Rx 1 0x225 s 8 7E 1E 00 40 03 5F 48 00 
18:41:53:9428 Rx 1 0x226 s 8 0C 32 00 40 03 69 47 00 
18:41:53:9906 Rx 1 0x225 s 8 7E 1E 00 40 03 5F 48 00 
18:41:53:9928 Rx 1 0x226 s 8 0C 32 00 40 03 69 47 00 
18:41:54:0406 Rx 1 0x225 s 8 7E 1E 00 40 03 5F 48 00 
18:41:54:0428 Rx 1 0x226 s 8 0C 32 00 40 03 69 47 00 
18:41:54:0906 Rx 1 0x225 s 8 7E 1E 00 40 03 5F 48 00 
18:41:54:0928 Rx 1 0x226 s 8 0C 32 00 40 03 69 47 00 
18:41:54:1406 Rx 1 0x225 s 8 7E 1E 00 40 03 5F 48 00 
18:41:54:1428 Rx 1 0x226 s 8 0C 32 00 40 03 69 47 00 
18:41:54:1907 Rx 1 0x225 s 8 7E 1E 00 40 03 5F 48 00 
18:41:54:1928 Rx 1 0x226 s 8 0C 32 00 40 03 69 47 00 
18:41:54:2407 Rx 1 0x225 s 8 7E 1E 00 40 03 5F 48 00 
18:41:54:2428 Rx 1 0x226 s 8 0C 32 00 40 03 69 47 00 
18:41:54:2907 Rx 1 0x225 s 8 7E 1E 00 40 03 5F 48 00 
18:41:54:2928 Rx 1 0x226 s 8 0C 32 00 40 03 69 47 00 
18:41:54:3407 Rx 1 0x225 s 8 7E 1E 00 40 03 5F 48 00 
18:41:54:3428 Rx 1 0x226 s 8 0C 32 00 40 03 69 47 00 
18:41:54:3907 Rx 1 0x225 s 8 7E 1E 00 40 03 5F 48 00 
18:41:54:3928 Rx 1 0x226 s 8 0C 32 00 80 03 69 47 00 
18:41:54:4407 Rx 1 0x225 s 8 7E 1E 00 40 03 5F 48 00 
18:41:54:4429 Rx 1 0x226 s 8 0C 32 00 80 03 69 47 00 
18:41:54:4907 Rx 1 0x225 s 8 7E 1E 00 40 03 5F 48 00 
18:41:54:4928 Rx 1 0x226 s 8 0C 32 00 80 03 69 47 00 
18:41:54:5407 Rx 1 0x225 s 8 7E 1E 00 40 03 5F 48 00 
18:41:54:5428 Rx 1 0x226 s 8 0C 32 00 80 03 69 47 00 
18:41:54:5907 Rx 1 0x225 s 8 7E 1E 00 40 03 5F 48 00 
18:41:54:5928 Rx 1 0x226 s 8 0C 32 00 80 03 69 47 00 
18:41:54:6407 Rx 1 0x225 s 8 7E 1E 00 40 03 5F 48 00 
18:41:54:6428 Rx 1 0x226 s 8 0C 32 00 80 03 69 47 00 
18:41:54:6907 Rx 1 0x225 s 8 7E 1E 00 40 03 5F 48 00 
18:41:54:6929 Rx 1 0x226 s 8 0C 32 00 80 03 69 47 00 
18:41:54:7407 Rx 1 0x225 s 8 7E 1E 00 40 03 5F 48 00 
18:41:54:7429 Rx 1 0x226 s 8 0C 32 00 80 03 69 47 00 
18:41:54:7907 Rx 1 0x225 s 8 7E 1E 00 40 03 5F 48 00 
18:41:54:7929 Rx 1 0x226 s 8 0C 32 00 80 03 68 47 00 
18:41:54:8407 Rx 1 0x225 s 8 7E 1E 00 40 03 5F 48 00 
18:41:54:8429 Rx 1 0x226 s 8 0C 32 00 80 03 68 47 00 
18:41:54:8907 Rx 1 0x225 s 8 7E 1E 00 40 03 5F 48 00 
18:41:54:8929 Rx 1 0x226 s 8 0C 32 00 80 03 68 47 00 
18:41:54:9407 Rx 1 0x225 s 8 7E 1E 00 40 03 5F 48 00 
18:41:54:9429 Rx 1 0x226 s 8 0C 32 00 80 03 68 47 00 
18:41:54:9907 Rx 1 0x225 s 8 7E 1E 00 40 03 5F 48 00 
18:41:54:9929 Rx 1 0x226 s 8 0C 32 00 80 03 67 47 00 
18:41:55:0408 Rx 1 0x225 s 8 7E 1E 00 40 03 5F 48 00 
18:41:55:0429 Rx 1 0x226 s 8 0C 32 00 80 03 67 47 00 
18:41:55:0908 Rx 1 0x225 s 8 7E 1E 00 40 03 5F 48 00 
18:41:55:0929 Rx 1 0x226 s 8 0C 32 00 80 03 65 47 00 
18:41:55:1408 Rx 1 0x225 s 8 7E 1E 00 40 03 5F 48 00 
18:41:55:1429 Rx 1 0x226 s 8 0C 32 00 80 03 63 47 00 
18:41:55:1908 Rx 1 0x225 s 8 7E 1E 00 40 03 5F 48 00 
18:41:55:1929 Rx 1 0x226 s 8 0C 32 00 80 03 5F 47 00 
18:41:55:2408 Rx 1 0x225 s 8 7E 1E 00 40 03 5F 48 00 
18:41:55:2430 Rx 1 0x226 s 8 0C 32 00 80 03 5C 47 00 
18:41:55:2908 Rx 1 0x225 s 8 7E 1E 00 40 03 5F 48 00 
18:41:55:2930 Rx 1 0x226 s 8 0C 32 00 80 03 5A 47 00 
18:41:55:3408 Rx 1 0x225 s 8 7E 1E 00 40 03 5F 48 00 
18:41:55:3430 Rx 1 0x226 s 8 0C 32 00 80 03 58 47 00 
18:41:55:3908 Rx 1 0x225 s 8 7E 1E 00 40 03 5F 48 00 
18:41:55:3930 Rx 1 0x226 s 8 0C 32 00 80 03 56 47 00 
18:41:55:4408 Rx 1 0x225 s 8 7E 1E 00 40 03 5F 48 00 
18:41:55:4430 Rx 1 0x226 s 8 0C 32 00 80 03 54 47 00 
18:41:55:4909 Rx 1 0x225 s 8 7E 1E 00 40 03 5F 48 00 
18:41:55:4930 Rx 1 0x226 s 8 0C 32 00 80 03 51 47 00 
18:41:55:5409 Rx 1 0x225 s 8 7E 1E 00 40 03 5F 48 00 
18:41:55:5430 Rx 1 0x226 s 8 0C 32 00 80 03 4D 47 00 
18:41:55:5909 Rx 1 0x225 s 8 7E 1E 00 40 03 5F 48 00 
18:41:55:5930 Rx 1 0x226 s 8 0C 32 00 80 03 49 47 00 
18:41:55:6409 Rx 1 0x225 s 8 7E 1E 00 40 03 5F 48 00 
18:41:55:6431 Rx 1 0x226 s 8 0C 32 00 80 03 46 47 00 
18:41:55:6909 Rx 1 0x225 s 8 7E 1E 00 80 03 5F 48 00 
18:41:55:6931 Rx 1 0x226 s 8 0C 32 00 80 03 44 47 00 
18:41:55:7409 Rx 1 0x225 s 8 7E 1E 00 80 03 5F 48 00 
18:41:55:7431 Rx 1 0x226 s 8 0C 32 00 80 03 41 47 00 
18:41:55:7909 Rx 1 0x225 s 8 7E 1E 00 80 03 5F 48 00 
18:41:55:7931 Rx 1 0x226 s 8 0C 32 00 80 03 3D 47 00 
18:41:55:8409 Rx 1 0x225 s 8 7E 1E 00 80 03 5F 48 00 
18:41:55:8431 Rx 1 0x226 s 8 0C 32 00 80 03 39 47 00 
18:41:55:8909 Rx 1 0x225 s 8 7E 1E 00 80 03 5F 48 00 
18:41:55:8931 Rx 1 0x226 s 8 0C 32 00 80 03 35 47 00 
18:41:55:9409 Rx 1 0x225 s 8 7E 1E 00 80 03 5F 48 00 
18:41:55:9431 Rx 1 0x226 s 8 0C 32 00 80 03 32 47 00 
18:41:55:9909 Rx 1 0x225 s 8 7E 1E 00 80 03 5F 48 00 
18:41:55:9931 Rx 1 0x226 s 8 0C 32 00 80 03 30 47 00 
18:41:56:0410 Rx 1 0x225 s 8 7E 1E 00 80 03 5F 48 00 
18:41:56:0431 Rx 1 0x226 s 8 0C 32 00 00 03 3C 47 00 
18:41:56:0910 Rx 1 0x225 s 8 7E 1E 00 80 03 5F 48 00 
18:41:56:0931 Rx 1 0x226 s 8 0C 32 00 40 03 6F 47 00 
18:41:56:1410 Rx 1 0x225 s 8 7E 1E 00 80 03 5F 48 00 
18:41:56:1431 Rx 1 0x226 s 8 0C 32 00 40 03 69 47 00 
18:41:56:1910 Rx 1 0x225 s 8 7E 1E 00 80 03 5F 48 00 
18:41:56:1931 Rx 1 0x226 s 8 0C 32 00 40 03 68 47 00 
18:41:56:2410 Rx 1 0x225 s 8 7E 1E 00 80 03 5F 48 00 
18:41:56:2432 Rx 1 0x226 s 8 0C 32 00 40 03 68 47 00 
18:41:56:2910 Rx 1 0x225 s 8 7E 1E 00 80 03 5F 48 00 
18:41:56:2932 Rx 1 0x226 s 8 0C 32 00 40 03 68 47 00 
18:41:56:3410 Rx 1 0x225 s 8 7E 1E 00 80 03 5F 48 00 
18:41:56:3432 Rx 1 0x226 s 8 0C 32 00 40 03 68 47 00 
18:41:56:3910 Rx 1 0x225 s 8 7E 1E 00 80 03 5F 48 00 
18:41:56:3932 Rx 1 0x226 s 8 0C 32 00 40 03 68 47 00 
18:41:56:4410 Rx 1 0x225 s 8 7E 1E 00 80 03 5F 48 00 
18:41:56:4432 Rx 1 0x226 s 8 0C 32 00 40 03 68 47 00 
18:41:56:4910 Rx 1 0x225 s 8 7E 1E 00 80 03 5F 48 00 
18:41:56:4932 Rx 1 0x226 s 8 0C 32 00 40 03 68 47 00 
18:41:56:5410 Rx 1 0x225 s 8 7E 1E 00 80 03 5F 48 00 
18:41:56:5432 Rx 1 0x226 s 8 0C 32 00 40 03 68 47 00 
18:41:56:5910 Rx 1 0x225 s 8 7E 1E 00 80 03 5F 48 00 
18:41:56:5932 Rx 1 0x226 s 8 0C 32 00 40 03 68 47 00 
18:41:56:6410 Rx 1 0x225 s 8 7E 1E 00 80 03 60 48 00 
18:41:56:6432 Rx 1 0x226 s 8 0C 32 00 40 03 68 47 00 
18:41:56:6911 Rx 1 0x225 s 8 7E 1E 00 80 03 60 48 00 
18:41:56:6933 Rx 1 0x226 s 8 0C 32 00 40 03 68 47 00 
18:41:56:7411 Rx 1 0x225 s 8 7E 1E 00 80 03 60 48 00 
18:41:56:7433 Rx 1 0x226 s 8 0C 32 00 40 03 68 47 00 
18:41:56:7911 Rx 1 0x225 s 8 7E 1E 00 80 03 61 48 00 
18:41:56:7933 Rx 1 0x226 s 8 0C 32 00 40 03 68 47 00 
18:41:56:8410 Rx 1 0x225 s 8 7E 1E 00 80 03 63 48 00 
18:41:56:8433 Rx 1 0x226 s 8 0C 32 00 40 03 68 47 00 
18:41:56:8911 Rx 1 0x225 s 8 7E 1E 00 80 03 64 48 00 
18:41:56:8933 Rx 1 0x226 s 8 0C 32 00 40 03 68 47 00 
18:41:56:9411 Rx 1 0x225 s 8 7E 1E 00 80 03 69 48 00 
18:41:56:9433 Rx 1 0x226 s 8 0C 32 00 40 03 68 47 00 
18:41:56:9911 Rx 1 0x225 s 8 7E 1E 00 80 03 6C 48 00 
18:41:56:9933 Rx 1 0x226 s 8 0C 32 00 40 03 68 47 00 
18:41:57:0411 Rx 1 0x225 s 8 7E 1E 00 80 03 6F 48 00 
18:41:57:0433 Rx 1 0x226 s 8 0C 32 00 40 03 68 47 00 
18:41:57:0911 Rx 1 0x225 s 8 7E 1E 00 80 03 70 48 00 
18:41:57:0933 Rx 1 0x226 s 8 0C 32 00 40 03 68 47 00 
18:41:57:1411 Rx 1 0x225 s 8 7E 1E 00 80 03 71 48 00 
18:41:57:1433 Rx 1 0x226 s 8 0C 32 00 40 03 68 47 00 
18:41:57:1911 Rx 1 0x225 s 8 7E 1E 00 80 03 72 48 00 
18:41:57:1933 Rx 1 0x226 s 8 0C 32 00 40 03 68 47 00 
18:41:57:2411 Rx 1 0x225 s 8 7E 1E 00 80 03 73 48 00 
18:41:57:2433 Rx 1 0x226 s 8 0C 32 00 40 03 68 47 00 
18:41:57:2911 Rx 1 0x225 s 8 7E 1E 00 80 03 73 48 00 
18:41:57:2933 Rx 1 0x226 s 8 0C 32 00 40 03 68 47 00 
18:41:57:3412 Rx 1 0x225 s 8 7E 1E 00 80 03 74 48 00 
18:41:57:3434 Rx 1 0x226 s 8 0C 32 00 40 03 68 47 00 
18:41:57:3912 Rx 1 0x225 s 8 7E 1E 00 80 03 75 48 00 
18:41:57:3934 Rx 1 0x226 s 8 0C 32 00 40 03 68 47 00 
18:41:57:4412 Rx 1 0x225 s 8 7E 1E 00 80 03 77 48 00 
18:41:57:4434 Rx 1 0x226 s 8 0C 32 00 40 03 68 47 00 
18:41:57:4912 Rx 1 0x225 s 8 7E 1E 00 80 03 7A 48 00 
18:41:57:4934 Rx 1 0x226 s 8 0C 32 00 40 03 68 47 00 
18:41:57:5412 Rx 1 0x225 s 8 7E 1E 00 80 03 7D 48 00 
18:41:57:5434 Rx 1 0x226 s 8 0C 32 00 40 03 68 47 00 
18:41:57:5912 Rx 1 0x225 s 8 7E 1E 00 80 03 80 48 00 
18:41:57:5934 Rx 1 0x226 s 8 0C 32 00 40 03 68 47 00 
18:41:57:6412 Rx 1 0x225 s 8 7E 1E 00 80 03 83 48 00 
18:41:57:6434 Rx 1 0x226 s 8 0C 32 00 40 03 68 47 00 
18:41:57:6912 Rx 1 0x225 s 8 7E 1E 00 80 03 84 48 00 
18:41:57:6934 Rx 1 0x226 s 8 0C 32 00 40 03 68 47 00 
18:41:57:7412 Rx 1 0x225 s 8 7E 1E 00 80 03 86 48 00 
18:41:57:7434 Rx 1 0x226 s 8 0C 32 00 40 03 68 47 00 
18:41:57:7912 Rx 1 0x225 s 8 7E 1E 00 80 03 88 48 00 
18:41:57:7934 Rx 1 0x226 s 8 0C 32 00 40 03 68 47 00 
18:41:57:8413 Rx 1 0x225 s 8 7E 1E 00 80 03 8B 48 00 
18:41:57:8434 Rx 1 0x226 s 8 0C 32 00 40 03 68 47 00 
18:41:57:8913 Rx 1 0x225 s 8 7E 1E 00 80 03 8F 48 00 
18:41:57:8935 Rx 1 0x226 s 8 0C 32 00 40 03 68 47 00 
18:41:57:9413 Rx 1 0x225 s 8 7E 1E 00 80 03 94 48 00 
18:41:57:9435 Rx 1 0x226 s 8 0C 32 00 40 03 68 47 00 
18:41:57:9913 Rx 1 0x225 s 8 7E 1E 00 80 03 98 48 00 
18:41:57:9935 Rx 1 0x226 s 8 0C 32 00 40 03 68 47 00 
18:41:58:0413 Rx 1 0x225 s 8 7E 1E 00 80 03 9A 48 00 
18:41:58:0435 Rx 1 0x226 s 8 0C 32 00 40 03 68 47 00 
18:41:58:0913 Rx 1 0x225 s 8 7E 1E 00 40 03 58 48 00 
18:41:58:0935 Rx 1 0x226 s 8 0C 32 00 40 03 68 47 00 
18:41:58:1413 Rx 1 0x225 s 8 7E 1E 00 40 03 5C 48 00 
18:41:58:1435 Rx 1 0x226 s 8 0C 32 00 40 03 68 47 00 
18:41:58:1913 Rx 1 0x225 s 8 7E 1E 00 40 03 5F 48 00 
18:41:58:1935 Rx 1 0x226 s 8 0C 32 00 80 03 68 47 00 
18:41:58:2413 Rx 1 0x225 s 8 7E 1E 00 40 03 5F 48 00 
18:41:58:2435 Rx 1 0x226 s 8 0C 32 00 80 03 68 47 00 
18:41:58:2913 Rx 1 0x225 s 8 7E 1E 00 40 03 5F 48 00 
18:41:58:2935 Rx 1 0x226 s 8 0C 32 00 80 03 68 47 00 
18:41:58:3413 Rx 1 0x225 s 8 7E 1E 00 40 03 5F 48 00 
18:41:58:3435 Rx 1 0x226 s 8 0C 32 00 80 03 68 47 00 
18:41:58:3913 Rx 1 0x225 s 8 7E 1E 00 40 03 5F 48 00 
18:41:58:3935 Rx 1 0x226 s 8 0C 32 00 80 03 68 47 00 
18:41:58:4414 Rx 1 0x225 s 8 7E 1E 00 40 03 5F 48 00 
18:41:58:4435 Rx 1 0x226 s 8 0C 32 00 80 03 68 47 00 
18:41:58:4914 Rx 1 0x225 s 8 7E 1E 00 40 03 5F 48 00 
18:41:58:4935 Rx 1 0x226 s 8 0C 32 00 80 03 68 47 00 
18:41:58:5414 Rx 1 0x225 s 8 7E 1E 00 40 03 5F 48 00 
18:41:58:5436 Rx 1 0x226 s 8 0C 32 00 80 03 68 47 00 
18:41:58:5914 Rx 1 0x225 s 8 7E 1E 00 40 03 5F 48 00 
18:41:58:5936 Rx 1 0x226 s 8 0C 32 00 80 03 68 47 00 
18:41:58:6414 Rx 1 0x225 s 8 7E 1E 00 40 03 5F 48 00 
18:41:58:6436 Rx 1 0x226 s 8 0C 32 00 80 03 68 47 00 
18:41:58:6914 Rx 1 0x225 s 8 7E 1E 00 40 03 5F 48 00 
18:41:58:6936 Rx 1 0x226 s 8 0C 32 00 80 03 68 47 00 
18:41:58:7414 Rx 1 0x225 s 8 7E 1E 00 40 03 5F 48 00 
18:41:58:7436 Rx 1 0x226 s 8 0C 32 00 80 03 68 47 00 
18:41:58:7914 Rx 1 0x225 s 8 7E 1E 00 40 03 5F 48 00 
18:41:58:7936 Rx 1 0x226 s 8 0C 32 00 80 03 68 47 00 
18:41:58:8414 Rx 1 0x225 s 8 7E 1E 00 40 03 5F 48 00 
18:41:58:8436 Rx 1 0x226 s 8 0C 32 00 80 03 67 47 00 
18:41:58:8914 Rx 1 0x225 s 8 7E 1E 00 40 03 5F 48 00 
18:41:58:8936 Rx 1 0x226 s 8 0C 32 00 80 03 66 47 00 
18:41:58:9414 Rx 1 0x225 s 8 7E 1E 00 40 03 5F 48 00 
18:41:58:9436 Rx 1 0x226 s 8 0C 32 00 80 03 64 47 00 
18:41:58:9914 Rx 1 0x225 s 8 7E 1E 00 40 03 5F 48 00 
18:41:58:9936 Rx 1 0x226 s 8 0C 32 00 80 03 60 47 00 
18:41:59:0414 Rx 1 0x225 s 8 7E 1E 00 40 03 5F 48 00 
18:41:59:0436 Rx 1 0x226 s 8 0C 32 00 80 03 5D 47 00 
18:41:59:0914 Rx 1 0x225 s 8 7E 1E 00 40 03 5F 48 00 
18:41:59:0936 Rx 1 0x226 s 8 0C 32 00 80 03 5A 47 00 
18:41:59:1415 Rx 1 0x225 s 8 7E 1E 00 40 03 5F 48 00 
18:41:59:1437 Rx 1 0x226 s 8 0C 32 00 80 03 58 47 00 
18:41:59:1915 Rx 1 0x225 s 8 7E 1E 00 40 03 5F 48 00 
18:41:59:1937 Rx 1 0x226 s 8 0C 32 00 80 03 57 47 00 
18:41:59:2415 Rx 1 0x225 s 8 7E 1E 00 40 03 5F 48 00 
18:41:59:2437 Rx 1 0x226 s 8 0C 32 00 80 03 54 47 00 
18:41:59:2915 Rx 1 0x225 s 8 7E 1E 00 40 03 5F 48 00 
18:41:59:2937 Rx 1 0x226 s 8 0C 32 00 80 03 51 47 00 
18:41:59:3415 Rx 1 0x225 s 8 7E 1E 00 40 03 5F 48 00 
18:41:59:3437 Rx 1 0x226 s 8 0C 32 00 80 03 4D 47 00 
18:41:59:3915 Rx 1 0x225 s 8 7E 1E 00 40 03 5F 48 00 
18:41:59:3937 Rx 1 0x226 s 8 0C 32 00 80 03 49 47 00 
18:41:59:4415 Rx 1 0x225 s 8 7E 1E 00 40 03 5F 48 00 
18:41:59:4437 Rx 1 0x226 s 8 0C 32 00 80 03 46 47 00 
18:41:59:4916 Rx 1 0x225 s 8 7E 1E 00 40 03 5F 48 00 
18:41:59:4937 Rx 1 0x226 s 8 0C 32 00 80 03 44 47 00 
18:41:59:5416 Rx 1 0x225 s 8 7E 1E 00 40 03 5F 48 00 
18:41:59:5437 Rx 1 0x226 s 8 0C 32 00 80 03 41 47 00 
18:41:59:5916 Rx 1 0x225 s 8 7E 1E 00 40 03 5F 48 00 
18:41:59:5937 Rx 1 0x226 s 8 0C 32 00 80 03 3E 47 00 
18:41:59:6416 Rx 1 0x225 s 8 7E 1E 00 40 03 5F 48 00 
18:41:59:6438 Rx 1 0x226 s 8 0C 32 00 80 03 39 47 00 
18:41:59:6916 Rx 1 0x225 s 8 7E 1E 00 40 03 5F 48 00 
18:41:59:6938 Rx 1 0x226 s 8 0C 32 00 80 03 35 47 00 
18:41:59:7416 Rx 1 0x225 s 8 7E 1E 00 40 03 5F 48 00 
18:41:59:7438 Rx 1 0x226 s 8 0C 32 00 80 03 32 47 00 
18:41:59:7916 Rx 1 0x225 s 8 7E 1E 00 40 03 5F 48 00 
18:41:59:7938 Rx 1 0x226 s 8 0C 32 00 80 03 30 47 00 
18:41:59:8416 Rx 1 0x225 s 8 7E 1E 00 40 03 5F 48 00 
18:41:59:8438 Rx 1 0x226 s 8 0C 32 00 00 03 3D 47 00 
18:41:59:8916 Rx 1 0x225 s 8 7E 1E 00 40 03 5F 48 00 
18:41:59:8938 Rx 1 0x226 s 8 0C 32 00 40 03 6F 47 00 
18:41:59:9416 Rx 1 0x225 s 8 7E 1E 00 40 03 5F 48 00 
18:41:59:9438 Rx 1 0x226 s 8 0C 32 00 40 03 69 47 00 
18:41:59:9916 Rx 1 0x225 s 8 7E 1E 00 40 03 5F 48 00 
18:41:59:9938 Rx 1 0x226 s 8 0C 32 00 40 03 68 47 00 
18:42:00:0416 Rx 1 0x225 s 8 7E 1E 00 40 03 5F 48 00 
18:42:00:0438 Rx 1 0x226 s 8 0C 32 00 40 03 68 47 00 
18:42:00:0592 Tx 1 0x220 s 8 40 FA 77 1E 00 00 00 00 
18:42:00:0916 Rx 1 0x225 s 8 7E 1E 00 40 03 5F 48 00 
18:42:00:0938 Rx 1 0x226 s 8 0C 32 00 40 03 68 47 00 
18:42:00:1417 Rx 1 0x225 s 8 7E 1E 00 40 03 5F 48 00 
18:42:00:1438 Rx 1 0x226 s 8 0C 32 00 40 03 68 47 00 
18:42:00:1917 Rx 1 0x225 s 8 7E 1E 00 80 03 5F 48 00 
18:42:00:1938 Rx 1 0x226 s 8 0C 32 00 40 03 68 47 00 
18:42:00:2417 Rx 1 0x225 s 8 7E 1E 00 80 03 5F 48 00 
18:42:00:2438 Rx 1 0x226 s 8 0C 32 00 40 03 68 47 00 
18:42:00:2917 Rx 1 0x225 s 8 7E 1E 00 80 03 5F 48 00 
18:42:00:2938 Rx 1 0x226 s 8 0C 32 00 40 03 68 47 00 
18:42:00:3417 Rx 1 0x225 s 8 7E 1E 00 80 03 5F 48 00 
18:42:00:3438 Rx 1 0x226 s 8 0C 32 00 40 03 68 47 00 
18:42:00:3917 Rx 1 0x225 s 8 7E 1E 00 80 03 5F 48 00 
18:42:00:3939 Rx 1 0x226 s 8 0C 32 00 40 03 68 47 00 
18:42:00:4417 Rx 1 0x225 s 8 7E 1E 00 80 03 5F 48 00 
18:42:00:4439 Rx 1 0x226 s 8 0C 32 00 40 03 68 47 00 
18:42:00:4917 Rx 1 0x225 s 8 7E 1E 00 80 03 5F 48 00 
18:42:00:4939 Rx 1 0x226 s 8 0C 32 00 40 03 68 47 00 
18:42:00:5417 Rx 1 0x225 s 8 7E 1E 00 80 03 5F 48 00 
18:42:00:5439 Rx 1 0x226 s 8 0C 32 00 40 03 68 47 00 
18:42:00:5917 Rx 1 0x225 s 8 7E 1E 00 80 03 5F 48 00 
18:42:00:5939 Rx 1 0x226 s 8 0C 32 00 40 03 68 47 00 
18:42:00:6417 Rx 1 0x225 s 8 7E 1E 00 80 03 5F 48 00 
18:42:00:6439 Rx 1 0x226 s 8 0C 32 00 40 03 68 47 00 
18:42:00:6917 Rx 1 0x225 s 8 7E 1E 00 80 03 5F 48 00 
18:42:00:6939 Rx 1 0x226 s 8 0C 32 00 40 03 68 47 00 
18:42:00:7417 Rx 1 0x225 s 8 7E 1E 00 80 03 5F 48 00 
18:42:00:7439 Rx 1 0x226 s 8 0C 32 00 40 03 68 47 00 
18:42:00:7917 Rx 1 0x225 s 8 7E 1E 00 80 03 5F 48 00 
18:42:00:7939 Rx 1 0x226 s 8 0C 32 00 40 03 68 47 00 
18:42:00:8417 Rx 1 0x225 s 8 7E 1E 00 80 03 5F 48 00 
18:42:00:8439 Rx 1 0x226 s 8 0C 32 00 40 03 68 47 00 
18:42:00:8917 Rx 1 0x225 s 8 7E 1E 00 80 03 5F 48 00 
18:42:00:8939 Rx 1 0x226 s 8 0C 32 00 40 03 68 47 00 
18:42:00:9418 Rx 1 0x225 s 8 7E 1E 00 80 03 5F 48 00 
18:42:00:9439 Rx 1 0x226 s 8 0C 32 00 40 03 68 47 00 
18:42:00:9918 Rx 1 0x225 s 8 7E 1E 00 80 03 5F 48 00 
18:42:00:9939 Rx 1 0x226 s 8 0C 32 00 40 03 68 47 00 
18:42:01:0418 Rx 1 0x225 s 8 7E 1E 00 80 03 5F 48 00 
18:42:01:0439 Rx 1 0x226 s 8 0C 32 00 40 03 68 47 00 
18:42:01:0918 Rx 1 0x225 s 8 7E 1E 00 80 03 5F 48 00 
18:42:01:0940 Rx 1 0x226 s 8 0C 32 00 40 03 68 47 00 
18:42:01:1418 Rx 1 0x225 s 8 7E 1E 00 80 03 5F 48 00 
18:42:01:1440 Rx 1 0x226 s 8 0C 32 00 40 03 68 47 00 
18:42:01:1918 Rx 1 0x225 s 8 7E 1E 00 80 03 60 48 00 
18:42:01:1940 Rx 1 0x226 s 8 0C 32 00 40 03 68 47 00 
18:42:01:2418 Rx 1 0x225 s 8 7E 1E 00 80 03 60 48 00 
18:42:01:2440 Rx 1 0x226 s 8 0C 32 00 40 03 68 47 00 
18:42:01:2918 Rx 1 0x225 s 8 7E 1E 00 80 03 61 48 00 
18:42:01:2940 Rx 1 0x226 s 8 0C 32 00 40 03 68 47 00 
18:42:01:3418 Rx 1 0x225 s 8 7E 1E 00 80 03 62 48 00 
18:42:01:3440 Rx 1 0x226 s 8 0C 32 00 40 03 68 47 00 
18:42:01:3918 Rx 1 0x225 s 8 7E 1E 00 80 03 63 48 00 
18:42:01:3940 Rx 1 0x226 s 8 0C 32 00 40 03 68 47 00 
18:42:01:4418 Rx 1 0x225 s 8 7E 1E 00 80 03 66 48 00 
18:42:01:4440 Rx 1 0x226 s 8 0C 32 00 40 03 68 47 00 
18:42:01:4919 Rx 1 0x225 s 8 7E 1E 00 80 03 6B 48 00 
18:42:01:4941 Rx 1 0x226 s 8 0C 32 00 40 03 68 47 00 
18:42:01:5419 Rx 1 0x225 s 8 7E 1E 00 80 03 6E 48 00 
18:42:01:5441 Rx 1 0x226 s 8 0C 32 00 40 03 68 47 00 
18:42:01:5919 Rx 1 0x225 s 8 7E 1E 00 80 03 70 48 00 
18:42:01:5941 Rx 1 0x226 s 8 0C 32 00 40 03 68 47 00 
18:42:01:6419 Rx 1 0x225 s 8 7E 1E 00 80 03 71 48 00 
18:42:01:6441 Rx 1 0x226 s 8 0C 32 00 40 03 68 47 00 
18:42:01:6919 Rx 1 0x225 s 8 7E 1E 00 80 03 71 48 00 
18:42:01:6941 Rx 1 0x226 s 8 0C 32 00 40 03 68 47 00 
18:42:01:7419 Rx 1 0x225 s 8 7E 1E 00 80 03 72 48 00 
18:42:01:7441 Rx 1 0x226 s 8 0C 32 00 40 03 68 47 00 
18:42:01:7919 Rx 1 0x225 s 8 7E 1E 00 80 03 73 48 00 
18:42:01:7941 Rx 1 0x226 s 8 0C 32 00 40 03 68 47 00 
18:42:01:8419 Rx 1 0x225 s 8 7E 1E 00 80 03 74 48 00 
18:42:01:8441 Rx 1 0x226 s 8 0C 32 00 40 03 68 47 00 
18:42:01:8919 Rx 1 0x225 s 8 7E 1E 00 80 03 75 48 00 
18:42:01:8941 Rx 1 0x226 s 8 0C 32 00 40 03 68 47 00 
18:42:01:9419 Rx 1 0x225 s 8 7E 1E 00 80 03 76 48 00 
18:42:01:9441 Rx 1 0x226 s 8 0C 32 00 40 03 68 47 00 
18:42:01:9920 Rx 1 0x225 s 8 7E 1E 00 80 03 79 48 00 
18:42:01:9941 Rx 1 0x226 s 8 DE 31 4E 80 03 64 47 00 
18:42:02:0420 Rx 1 0x225 s 8 7E 1E 00 80 03 7C 48 00 
18:42:02:0441 Rx 1 0x226 s 8 67 30 E8 80 03 64 47 00 
18:42:02:0920 Rx 1 0x225 s 8 7E 1E 00 80 03 7F 48 00 
18:42:02:0941 Rx 1 0x226 s 8 6F 2E DE 80 03 C8 47 00 
18:42:02:1420 Rx 1 0x225 s 8 7E 1E 00 80 03 82 48 00 
18:42:02:1442 Rx 1 0x226 s 8 03 2D D6 80 03 C8 47 00 
18:42:02:1920 Rx 1 0x225 s 8 7E 1E 00 80 03 84 48 00 
18:42:02:1942 Rx 1 0x226 s 8 0C 2B E5 80 03 64 47 00 
18:42:02:2420 Rx 1 0x225 s 8 7E 1E 00 80 03 86 48 00 
18:42:02:2442 Rx 1 0x226 s 8 E1 29 B6 80 03 C8 47 00 
18:42:02:2920 Rx 1 0x225 s 8 7E 1E 00 80 03 88 48 00 
18:42:02:2942 Rx 1 0x226 s 8 6E 28 8C 40 03 64 47 00 
18:42:02:3420 Rx 1 0x225 s 8 7E 1E 00 80 03 8A 48 00 
18:42:02:3442 Rx 1 0x226 s 8 6D 28 00 40 03 55 47 00 
18:42:02:3920 Rx 1 0x225 s 8 7E 1E 00 80 03 8E 48 00 
18:42:02:3942 Rx 1 0x226 s 8 6D 28 00 40 03 61 47 00 
18:42:02:4420 Rx 1 0x225 s 8 7E 1E 00 80 03 93 48 00 
18:42:02:4442 Rx 1 0x226 s 8 6D 28 00 40 03 61 47 00 
18:42:02:4920 Rx 1 0x225 s 8 7E 1E 00 80 03 96 48 00 
18:42:02:4942 Rx 1 0x226 s 8 6D 28 00 40 03 61 47 00 
18:42:02:5420 Rx 1 0x225 s 8 7E 1E 00 80 03 99 48 00 
18:42:02:5442 Rx 1 0x226 s 8 6D 28 00 40 03 61 47 00 
18:42:02:5921 Rx 1 0x225 s 8 7E 1E 00 00 03 8F 48 00 
18:42:02:5942 Rx 1 0x226 s 8 6D 28 00 40 03 61 47 00 
18:42:02:6420 Rx 1 0x225 s 8 7E 1E 00 40 03 59 48 00 
18:42:02:6442 Rx 1 0x226 s 8 6D 28 00 40 03 61 47 00 
18:42:02:6920 Rx 1 0x225 s 8 7E 1E 00 40 03 5E 48 00 
18:42:02:6942 Rx 1 0x226 s 8 6D 28 00 40 03 61 47 00 
18:42:02:7421 Rx 1 0x225 s 8 7E 1E 00 40 03 5F 48 00 
18:42:02:7442 Rx 1 0x226 s 8 6D 28 00 40 03 61 47 00 
18:42:02:7921 Rx 1 0x225 s 8 7E 1E 00 40 03 5F 48 00 
18:42:02:7943 Rx 1 0x226 s 8 6D 28 00 40 03 61 47 00 
18:42:02:8421 Rx 1 0x225 s 8 7E 1E 00 40 03 5F 48 00 
18:42:02:8443 Rx 1 0x226 s 8 6D 28 00 40 03 61 47 00 
18:42:02:8921 Rx 1 0x225 s 8 7E 1E 00 40 03 5F 48 00 
18:42:02:8943 Rx 1 0x226 s 8 6D 28 00 40 03 61 47 00 
18:42:02:9421 Rx 1 0x225 s 8 7E 1E 00 40 03 5F 48 00 
18:42:02:9443 Rx 1 0x226 s 8 6D 28 00 40 03 61 47 00 
18:42:02:9921 Rx 1 0x225 s 8 7E 1E 00 40 03 5F 48 00 
18:42:02:9943 Rx 1 0x226 s 8 6D 28 00 40 03 61 47 00 
18:42:03:0421 Rx 1 0x225 s 8 7E 1E 00 40 03 5F 48 00 
18:42:03:0443 Rx 1 0x226 s 8 6D 28 00 40 03 61 47 00 
18:42:03:0921 Rx 1 0x225 s 8 7E 1E 00 40 03 5F 48 00 
18:42:03:0943 Rx 1 0x226 s 8 6D 28 00 40 03 61 47 00 
18:42:03:1421 Rx 1 0x225 s 8 7E 1E 00 40 03 5F 48 00 
18:42:03:1443 Rx 1 0x226 s 8 6D 28 00 40 03 61 47 00 
18:42:03:1921 Rx 1 0x225 s 8 7E 1E 00 40 03 5F 48 00 
18:42:03:1943 Rx 1 0x226 s 8 6D 28 00 40 03 61 47 00 
18:42:03:2421 Rx 1 0x225 s 8 7E 1E 00 40 03 5F 48 00 
18:42:03:2443 Rx 1 0x226 s 8 6D 28 00 40 03 61 47 00 
18:42:03:2921 Rx 1 0x225 s 8 7E 1E 00 40 03 5F 48 00 
18:42:03:2943 Rx 1 0x226 s 8 6D 28 00 40 03 61 47 00 
18:42:03:3421 Rx 1 0x225 s 8 7E 1E 00 40 03 5F 48 00 
18:42:03:3443 Rx 1 0x226 s 8 6D 28 00 40 03 61 47 00 
18:42:03:3921 Rx 1 0x225 s 8 7E 1E 00 40 03 5F 48 00 
18:42:03:3944 Rx 1 0x226 s 8 6D 28 00 40 03 61 47 00 
18:42:03:4422 Rx 1 0x225 s 8 7E 1E 00 40 03 5F 48 00 
18:42:03:4444 Rx 1 0x226 s 8 6D 28 00 40 03 61 47 00 
18:42:03:4922 Rx 1 0x225 s 8 7E 1E 00 40 03 5F 48 00 
18:42:03:4944 Rx 1 0x226 s 8 6D 28 00 40 03 61 47 00 
18:42:03:5422 Rx 1 0x225 s 8 7E 1E 00 40 03 5F 48 00 
18:42:03:5444 Rx 1 0x226 s 8 6D 28 00 40 03 61 47 00 
18:42:03:5922 Rx 1 0x225 s 8 7E 1E 00 40 03 5F 48 00 
18:42:03:5944 Rx 1 0x226 s 8 6D 28 00 40 03 61 47 00 
18:42:03:6422 Rx 1 0x225 s 8 7E 1E 00 40 03 5F 48 00 
18:42:03:6444 Rx 1 0x226 s 8 6D 28 00 40 03 61 47 00 
18:42:03:6922 Rx 1 0x225 s 8 7E 1E 00 40 03 5F 48 00 
18:42:03:6944 Rx 1 0x226 s 8 6D 28 00 40 03 61 47 00 
18:42:03:7422 Rx 1 0x225 s 8 7E 1E 00 40 03 5F 48 00 
18:42:03:7445 Rx 1 0x226 s 8 6D 28 00 40 03 61 47 00 
18:42:03:7922 Rx 1 0x225 s 8 7E 1E 00 40 03 5F 48 00 
18:42:03:7945 Rx 1 0x226 s 8 6D 28 00 40 03 61 47 00 
18:42:03:8422 Rx 1 0x225 s 8 7E 1E 00 40 03 5F 48 00 
18:42:03:8445 Rx 1 0x226 s 8 6D 28 00 40 03 61 47 00 
18:42:03:8922 Rx 1 0x225 s 8 7E 1E 00 40 03 5F 48 00 
18:42:03:8945 Rx 1 0x226 s 8 6D 28 00 40 03 61 47 00 
18:42:03:9423 Rx 1 0x225 s 8 7E 1E 00 40 03 5F 48 00 
18:42:03:9445 Rx 1 0x226 s 8 6D 28 00 40 03 61 47 00 
18:42:03:9923 Rx 1 0x225 s 8 7E 1E 00 40 03 5F 48 00 
18:42:03:9945 Rx 1 0x226 s 8 6D 28 00 40 03 61 47 00 
18:42:04:0423 Rx 1 0x225 s 8 7E 1E 00 40 03 5F 48 00 
18:42:04:0445 Rx 1 0x226 s 8 6D 28 00 40 03 61 47 00 
18:42:04:0923 Rx 1 0x225 s 8 7E 1E 00 40 03 5F 48 00 
18:42:04:0945 Rx 1 0x226 s 8 6D 28 00 40 03 61 47 00 
18:42:04:1423 Rx 1 0x225 s 8 7E 1E 00 40 03 5F 48 00 
18:42:04:1445 Rx 1 0x226 s 8 6D 28 00 40 03 61 47 00 
18:42:04:1923 Rx 1 0x225 s 8 7E 1E 00 40 03 5F 48 00 
18:42:04:1945 Rx 1 0x226 s 8 6D 28 00 40 03 61 47 00 
18:42:04:2423 Rx 1 0x225 s 8 7E 1E 00 40 03 5F 48 00 
18:42:04:2445 Rx 1 0x226 s 8 6D 28 00 40 03 61 47 00 
18:42:04:2923 Rx 1 0x225 s 8 7E 1E 00 40 03 5F 48 00 
18:42:04:2945 Rx 1 0x226 s 8 6D 28 00 40 03 61 47 00 
18:42:04:3423 Rx 1 0x225 s 8 7E 1E 00 40 03 5F 48 00 
18:42:04:3445 Rx 1 0x226 s 8 6D 28 00 40 03 61 47 00 
18:42:04:3923 Rx 1 0x225 s 8 7E 1E 00 40 03 5F 48 00 
18:42:04:3946 Rx 1 0x226 s 8 6D 28 00 40 03 61 47 00 
18:42:04:4423 Rx 1 0x225 s 8 7E 1E 00 40 03 5F 48 00 
18:42:04:4446 Rx 1 0x226 s 8 07 28 79 80 03 64 47 00 
18:42:04:4923 Rx 1 0x225 s 8 7E 1E 00 40 03 5F 48 00 
18:42:04:4946 Rx 1 0x226 s 8 E8 26 93 80 03 C8 47 00 
18:42:04:5423 Rx 1 0x225 s 8 7E 1E 00 40 03 5F 48 00 
18:42:04:5446 Rx 1 0x226 s 8 ED 25 70 80 03 C8 47 00 
18:42:04:5924 Rx 1 0x225 s 8 7E 1E 00 40 03 5F 48 00 
18:42:04:5946 Rx 1 0x226 s 8 09 25 69 80 03 C8 47 00 
18:42:04:6424 Rx 1 0x225 s 8 7E 1E 00 40 03 5F 48 00 
18:42:04:6446 Rx 1 0x226 s 8 40 24 5E 80 03 C8 47 00 
18:42:04:6924 Rx 1 0x225 s 8 7E 1E 00 40 03 5F 48 00 
18:42:04:6946 Rx 1 0x226 s 8 77 23 61 80 03 C8 47 00 
18:42:04:7424 Rx 1 0x225 s 8 7E 1E 00 80 03 5F 48 00 
18:42:04:7446 Rx 1 0x226 s 8 04 23 01 40 03 AF 47 00 
18:42:04:7924 Rx 1 0x225 s 8 7E 1E 00 80 03 5F 48 00 
18:42:04:7946 Rx 1 0x226 s 8 05 23 00 40 03 59 47 00 
18:42:04:8424 Rx 1 0x225 s 8 7E 1E 00 80 03 5F 48 00 
18:42:04:8446 Rx 1 0x226 s 8 05 23 00 40 03 61 47 00 
18:42:04:8924 Rx 1 0x225 s 8 7E 1E 00 80 03 5F 48 00 
18:42:04:8946 Rx 1 0x226 s 8 05 23 00 40 03 61 47 00 
18:42:04:9424 Rx 1 0x225 s 8 7E 1E 00 80 03 5F 48 00 
18:42:04:9446 Rx 1 0x226 s 8 05 23 00 40 03 61 47 00 
18:42:04:9924 Rx 1 0x225 s 8 7E 1E 00 80 03 5F 48 00 
18:42:04:9946 Rx 1 0x226 s 8 05 23 00 40 03 61 47 00 
18:42:05:0424 Rx 1 0x225 s 8 7E 1E 00 80 03 5F 48 00 
18:42:05:0447 Rx 1 0x226 s 8 05 23 00 40 03 61 47 00 
18:42:05:0924 Rx 1 0x225 s 8 7E 1E 00 80 03 5F 48 00 
18:42:05:0947 Rx 1 0x226 s 8 05 23 00 40 03 61 47 00 
18:42:05:1424 Rx 1 0x225 s 8 7E 1E 00 80 03 5F 48 00 
18:42:05:1447 Rx 1 0x226 s 8 05 23 00 40 03 61 47 00 
18:42:05:1924 Rx 1 0x225 s 8 7E 1E 00 80 03 5F 48 00 
18:42:05:1947 Rx 1 0x226 s 8 05 23 00 40 03 61 47 00 
18:42:05:2425 Rx 1 0x225 s 8 7E 1E 00 80 03 5F 48 00 
18:42:05:2447 Rx 1 0x226 s 8 05 23 00 40 03 61 47 00 
18:42:05:2925 Rx 1 0x225 s 8 7E 1E 00 80 03 5F 48 00 
18:42:05:2947 Rx 1 0x226 s 8 05 23 00 40 03 61 47 00 
18:42:05:3425 Rx 1 0x225 s 8 7E 1E 00 80 03 5F 48 00 
18:42:05:3447 Rx 1 0x226 s 8 05 23 00 40 03 61 47 00 
18:42:05:3925 Rx 1 0x225 s 8 7E 1E 00 80 03 5F 48 00 
18:42:05:3947 Rx 1 0x226 s 8 05 23 00 40 03 61 47 00 
18:42:05:4425 Rx 1 0x225 s 8 7E 1E 00 80 03 5F 48 00 
18:42:05:4447 Rx 1 0x226 s 8 05 23 00 40 03 61 47 00 
18:42:05:4925 Rx 1 0x225 s 8 7E 1E 00 80 03 5F 48 00 
18:42:05:4947 Rx 1 0x226 s 8 05 23 00 40 03 61 47 00 
18:42:05:5426 Rx 1 0x225 s 8 7E 1E 00 80 03 5F 48 00 
18:42:05:5447 Rx 1 0x226 s 8 05 23 00 40 03 61 47 00 
18:42:05:5926 Rx 1 0x225 s 8 7E 1E 00 80 03 5F 48 00 
18:42:05:5947 Rx 1 0x226 s 8 05 23 00 40 03 61 47 00 
18:42:05:6426 Rx 1 0x225 s 8 7E 1E 00 80 03 5F 48 00 
18:42:05:6448 Rx 1 0x226 s 8 05 23 00 40 03 61 47 00 
18:42:05:6926 Rx 1 0x225 s 8 7E 1E 00 80 03 60 48 00 
18:42:05:6948 Rx 1 0x226 s 8 05 23 00 40 03 61 47 00 
18:42:05:7426 Rx 1 0x225 s 8 7E 1E 00 80 03 60 48 00 
18:42:05:7448 Rx 1 0x226 s 8 05 23 00 40 03 61 47 00 
18:42:05:7926 Rx 1 0x225 s 8 7E 1E 00 80 03 60 48 00 
18:42:05:7948 Rx 1 0x226 s 8 05 23 00 40 03 61 47 00 
18:42:05:8426 Rx 1 0x225 s 8 7E 1E 00 80 03 61 48 00 
18:42:05:8448 Rx 1 0x226 s 8 05 23 00 40 03 61 47 00 
18:42:05:8926 Rx 1 0x225 s 8 7E 1E 00 80 03 61 48 00 
18:42:05:8948 Rx 1 0x226 s 8 05 23 00 40 03 61 47 00 
18:42:05:9426 Rx 1 0x225 s 8 7E 1E 00 80 03 63 48 00 
18:42:05:9448 Rx 1 0x226 s 8 05 23 00 40 03 61 47 00 
18:42:05:9926 Rx 1 0x225 s 8 7E 1E 00 80 03 65 48 00 
18:42:05:9948 Rx 1 0x226 s 8 05 23 00 40 03 61 47 00 
18:42:06:0426 Rx 1 0x225 s 8 7E 1E 00 80 03 6A 48 00 
18:42:06:0448 Rx 1 0x226 s 8 05 23 00 40 03 61 47 00 
18:42:06:0926 Rx 1 0x225 s 8 7E 1E 00 80 03 6D 48 00 
18:42:06:0948 Rx 1 0x226 s 8 05 23 00 40 03 61 47 00 
18:42:06:1426 Rx 1 0x225 s 8 7E 1E 00 80 03 6F 48 00 
18:42:06:1448 Rx 1 0x226 s 8 05 23 00 40 03 61 47 00 
18:42:06:1927 Rx 1 0x225 s 8 7E 1E 00 80 03 70 48 00 
18:42:06:1948 Rx 1 0x226 s 8 05 23 00 40 03 61 47 00 
18:42:06:2427 Rx 1 0x225 s 8 7E 1E 00 80 03 71 48 00 
18:42:06:2448 Rx 1 0x226 s 8 05 23 00 40 03 61 47 00 
18:42:06:2927 Rx 1 0x225 s 8 7E 1E 00 80 03 72 48 00 
18:42:06:2949 Rx 1 0x226 s 8 05 23 00 40 03 61 47 00 
18:42:06:3427 Rx 1 0x225 s 8 7E 1E 00 80 03 73 48 00 
18:42:06:3449 Rx 1 0x226 s 8 05 23 00 40 03 61 47 00 
18:42:06:3927 Rx 1 0x225 s 8 7E 1E 00 80 03 74 48 00 
18:42:06:3949 Rx 1 0x226 s 8 05 23 00 40 03 61 47 00 
18:42:06:4427 Rx 1 0x225 s 8 7E 1E 00 80 03 75 48 00 
18:42:06:4449 Rx 1 0x226 s 8 05 23 00 40 03 61 47 00 
18:42:06:4927 Rx 1 0x225 s 8 7E 1E 00 80 03 76 48 00 
18:42:06:4949 Rx 1 0x226 s 8 05 23 00 40 03 61 47 00 
18:42:06:5427 Rx 1 0x225 s 8 7E 1E 00 80 03 77 48 00 
18:42:06:5449 Rx 1 0x226 s 8 05 23 00 40 03 61 47 00 
18:42:06:5927 Rx 1 0x225 s 8 7E 1E 00 80 03 7A 48 00 
18:42:06:5949 Rx 1 0x226 s 8 05 23 00 40 03 61 47 00 
18:42:06:6427 Rx 1 0x225 s 8 7E 1E 00 80 03 7D 48 00 
18:42:06:6449 Rx 1 0x226 s 8 05 23 00 40 03 61 47 00 
18:42:06:6927 Rx 1 0x225 s 8 7E 1E 00 80 03 80 48 00 
18:42:06:6949 Rx 1 0x226 s 8 05 23 00 40 03 61 47 00 
18:42:06:7427 Rx 1 0x225 s 8 7E 1E 00 80 03 83 48 00 
18:42:06:7449 Rx 1 0x226 s 8 05 23 00 40 03 61 47 00 
18:42:06:7927 Rx 1 0x225 s 8 7E 1E 00 80 03 85 48 00 
18:42:06:7949 Rx 1 0x226 s 8 05 23 00 40 03 61 47 00 
18:42:06:8427 Rx 1 0x225 s 8 7E 1E 00 80 03 86 48 00 
18:42:06:8449 Rx 1 0x226 s 8 05 23 00 40 03 61 47 00 
18:42:06:8928 Rx 1 0x225 s 8 7E 1E 00 80 03 89 48 00 
18:42:06:8950 Rx 1 0x226 s 8 CF 22 4A 80 03 C8 47 00 
18:42:06:9428 Rx 1 0x225 s 8 7E 1E 00 80 03 8C 48 00 
18:42:06:9450 Rx 1 0x226 s 8 17 22 60 80 03 C8 47 00 
18:42:06:9928 Rx 1 0x225 s 8 7E 1E 00 80 03 90 48 00 
18:42:06:9950 Rx 1 0x226 s 8 53 21 62 80 03 C8 47 00 
18:42:07:0428 Rx 1 0x225 s 8 7E 1E 00 80 03 94 48 00 
18:42:07:0450 Rx 1 0x226 s 8 8C 20 65 80 03 C8 47 00 
18:42:07:0928 Rx 1 0x225 s 8 7E 1E 00 80 03 98 48 00 
18:42:07:0950 Rx 1 0x226 s 8 C4 1F 63 80 03 C8 47 00 
18:42:07:1428 Rx 1 0x225 s 8 7E 1E 00 80 03 9A 48 00 
18:42:07:1450 Rx 1 0x226 s 8 00 1F 5E 80 03 C8 47 00 
18:42:07:1928 Rx 1 0x225 s 8 7E 1E 00 40 03 59 48 00 
18:42:07:1950 Rx 1 0x226 s 8 BF 1E 01 40 03 72 47 00 
18:42:07:2428 Rx 1 0x225 s 8 7E 1E 00 40 03 5C 48 00 
18:42:07:2450 Rx 1 0x226 s 8 C0 1E 00 40 03 5C 47 00 
18:42:07:2928 Rx 1 0x225 s 8 7E 1E 00 40 03 5F 48 00 
18:42:07:2950 Rx 1 0x226 s 8 C0 1E 00 40 03 61 47 00 
18:42:07:3428 Rx 1 0x225 s 8 7E 1E 00 40 03 5F 48 00 
18:42:07:3450 Rx 1 0x226 s 8 C0 1E 00 40 03 61 47 00 
18:42:07:3928 Rx 1 0x225 s 8 7E 1E 00 40 03 5F 48 00 
18:42:07:3950 Rx 1 0x226 s 8 C0 1E 00 40 03 61 47 00 
18:42:07:4428 Rx 1 0x225 s 8 7E 1E 00 40 03 5F 48 00 
18:42:07:4450 Rx 1 0x226 s 8 C0 1E 00 40 03 61 47 00 
18:42:07:4929 Rx 1 0x225 s 8 7E 1E 00 40 03 5F 48 00 
18:42:07:4951 Rx 1 0x226 s 8 C0 1E 00 40 03 61 47 00 
18:42:07:5429 Rx 1 0x225 s 8 7E 1E 00 40 03 5F 48 00 
18:42:07:5451 Rx 1 0x226 s 8 C0 1E 00 40 03 61 47 00 
18:42:07:5929 Rx 1 0x225 s 8 7E 1E 00 40 03 5F 48 00 
18:42:07:5951 Rx 1 0x226 s 8 C0 1E 00 40 03 61 47 00 
18:42:07:6429 Rx 1 0x225 s 8 7E 1E 00 40 03 5F 48 00 
18:42:07:6451 Rx 1 0x226 s 8 C0 1E 00 40 03 61 47 00 
18:42:07:6929 Rx 1 0x225 s 8 7E 1E 00 40 03 5F 48 00 
18:42:07:6951 Rx 1 0x226 s 8 C0 1E 00 40 03 61 47 00 
18:42:07:7429 Rx 1 0x225 s 8 7E 1E 00 40 03 5F 48 00 
18:42:07:7451 Rx 1 0x226 s 8 C0 1E 00 40 03 61 47 00 
18:42:07:7929 Rx 1 0x225 s 8 7E 1E 00 40 03 5F 48 00 
18:42:07:7951 Rx 1 0x226 s 8 C0 1E 00 40 03 61 47 00 
18:42:07:8429 Rx 1 0x225 s 8 7E 1E 00 40 03 5F 48 00 
18:42:07:8451 Rx 1 0x226 s 8 C0 1E 00 40 03 61 47 00 
18:42:07:8929 Rx 1 0x225 s 8 7E 1E 00 40 03 5F 48 00 
18:42:07:8951 Rx 1 0x226 s 8 C0 1E 00 40 03 61 47 00 
18:42:07:9429 Rx 1 0x225 s 8 7E 1E 00 40 03 5F 48 00 
18:42:07:9451 Rx 1 0x226 s 8 C0 1E 00 40 03 61 47 00 
18:42:07:9929 Rx 1 0x225 s 8 7E 1E 00 40 03 5F 48 00 
18:42:07:9951 Rx 1 0x226 s 8 C0 1E 00 40 03 61 47 00 
18:42:08:0429 Rx 1 0x225 s 8 7E 1E 00 40 03 5F 48 00 
18:42:08:0451 Rx 1 0x226 s 8 C0 1E 00 40 03 61 47 00 
18:42:08:0929 Rx 1 0x225 s 8 7E 1E 00 40 03 5F 48 00 
18:42:08:0952 Rx 1 0x226 s 8 C0 1E 00 40 03 61 47 00 
18:42:08:1430 Rx 1 0x225 s 8 7E 1E 00 40 03 5F 48 00 
18:42:08:1452 Rx 1 0x226 s 8 C0 1E 00 40 03 61 47 00 
18:42:08:1930 Rx 1 0x225 s 8 7E 1E 00 40 03 5F 48 00 
18:42:08:1952 Rx 1 0x226 s 8 C0 1E 00 40 03 61 47 00 
18:42:08:2430 Rx 1 0x225 s 8 7E 1E 00 40 03 5F 48 00 
18:42:08:2452 Rx 1 0x226 s 8 C0 1E 00 40 03 61 47 00 
18:42:08:2930 Rx 1 0x225 s 8 7E 1E 00 40 03 5F 48 00 
18:42:08:2952 Rx 1 0x226 s 8 C0 1E 00 40 03 61 47 00 
18:42:08:3430 Rx 1 0x225 s 8 7E 1E 00 40 03 5F 48 00 
18:42:08:3452 Rx 1 0x226 s 8 C0 1E 00 40 03 61 47 00 
18:42:08:3930 Rx 1 0x225 s 8 7E 1E 00 40 03 5F 48 00 
18:42:08:3952 Rx 1 0x226 s 8 C0 1E 00 40 03 61 47 00 
18:42:08:4430 Rx 1 0x225 s 8 7E 1E 00 40 03 5F 48 00 
18:42:08:4452 Rx 1 0x226 s 8 C0 1E 00 40 03 61 47 00 
18:42:08:4930 Rx 1 0x225 s 8 7E 1E 00 40 03 5F 48 00 
18:42:08:4953 Rx 1 0x226 s 8 C0 1E 00 40 03 61 47 00 
18:42:08:5430 Rx 1 0x225 s 8 7E 1E 00 40 03 5F 48 00 
18:42:08:5453 Rx 1 0x226 s 8 C0 1E 00 40 03 61 47 00 
18:42:08:5930 Rx 1 0x225 s 8 7E 1E 00 40 03 5F 48 00 
18:42:08:5953 Rx 1 0x226 s 8 C0 1E 00 40 03 61 47 00 
18:42:08:6431 Rx 1 0x225 s 8 7E 1E 00 40 03 5F 48 00 
18:42:08:6453 Rx 1 0x226 s 8 C0 1E 00 40 03 61 47 00 
18:42:08:6931 Rx 1 0x225 s 8 7E 1E 00 40 03 5F 48 00 
18:42:08:6953 Rx 1 0x226 s 8 C0 1E 00 40 03 61 47 00 
18:42:08:7431 Rx 1 0x225 s 8 7E 1E 00 40 03 5F 48 00 
18:42:08:7453 Rx 1 0x226 s 8 C0 1E 00 40 03 61 47 00 
18:42:08:7931 Rx 1 0x225 s 8 7E 1E 00 40 03 5F 48 00 
18:42:08:7953 Rx 1 0x226 s 8 C0 1E 00 40 03 61 47 00 
18:42:08:8431 Rx 1 0x225 s 8 7E 1E 00 40 03 5F 48 00 
18:42:08:8453 Rx 1 0x226 s 8 C0 1E 00 40 03 61 47 00 
18:42:08:8931 Rx 1 0x225 s 8 7E 1E 00 40 03 5F 48 00 
18:42:08:8953 Rx 1 0x226 s 8 C0 1E 00 40 03 61 47 00 
18:42:08:9431 Rx 1 0x225 s 8 7E 1E 00 40 03 5F 48 00 
18:42:08:9453 Rx 1 0x226 s 8 C0 1E 00 40 03 61 47 00 
18:42:08:9931 Rx 1 0x225 s 8 7E 1E 00 40 03 5F 48 00 
18:42:08:9953 Rx 1 0x226 s 8 C0 1E 00 40 03 61 47 00 
18:42:09:0431 Rx 1 0x225 s 8 7E 1E 00 40 03 5F 48 00 
18:42:09:0454 Rx 1 0x226 s 8 C0 1E 00 40 03 61 47 00 
18:42:09:0931 Rx 1 0x225 s 8 7E 1E 00 40 03 5F 48 00 
18:42:09:0954 Rx 1 0x226 s 8 C0 1E 00 40 03 61 47 00 
18:42:09:1431 Rx 1 0x225 s 8 7E 1E 00 40 03 5F 48 00 
18:42:09:1454 Rx 1 0x226 s 8 C0 1E 00 40 03 61 47 00 
18:42:09:1931 Rx 1 0x225 s 8 7E 1E 00 40 03 5F 48 00 
18:42:09:1954 Rx 1 0x226 s 8 C0 1E 00 40 03 61 47 00 
18:42:09:2432 Rx 1 0x225 s 8 7E 1E 00 40 03 5F 48 00 
18:42:09:2454 Rx 1 0x226 s 8 C0 1E 00 40 03 61 47 00 
18:42:09:2932 Rx 1 0x225 s 8 7E 1E 00 80 03 5F 48 00 
18:42:09:2954 Rx 1 0x226 s 8 C0 1E 00 40 03 61 47 00 
18:42:09:3432 Rx 1 0x225 s 8 7E 1E 00 80 03 5F 48 00 
18:42:09:3454 Rx 1 0x226 s 8 BF 1E 00 80 03 AB 47 00 
18:42:09:3932 Rx 1 0x225 s 8 7E 1E 00 80 03 5F 48 00 
18:42:09:3954 Rx 1 0x226 s 8 9D 1E 18 80 03 C8 47 00 
18:42:09:4432 Rx 1 0x225 s 8 7E 1E 00 80 03 5F 48 00 
18:42:09:4454 Rx 1 0x226 s 8 82 1E 08 80 03 64 47 00 
18:42:09:4932 Rx 1 0x225 s 8 7E 1E 00 80 03 5F 48 00 
18:42:09:4955 Rx 1 0x226 s 8 7B 1E 01 80 03 64 47 00 
18:42:09:5433 Rx 1 0x225 s 8 7E 1E 00 80 03 5F 48 00 
18:42:09:5455 Rx 1 0x226 s 8 7B 1E 00 80 03 64 47 00 
18:42:09:5933 Rx 1 0x225 s 8 7E 1E 00 80 03 5F 48 00 
18:42:09:5955 Rx 1 0x226 s 8 7B 1E 00 80 03 64 47 00 
18:42:09:6433 Rx 1 0x225 s 8 7E 1E 00 80 03 5F 48 00 
18:42:09:6455 Rx 1 0x226 s 8 7B 1E 01 00 03 B7 47 00 
18:42:09:6933 Rx 1 0x225 s 8 7E 1E 00 80 03 5F 48 00 
18:42:09:6955 Rx 1 0x226 s 8 7B 1E 00 40 03 57 47 00 
18:42:09:7433 Rx 1 0x225 s 8 7E 1E 00 80 03 5F 48 00 
18:42:09:7455 Rx 1 0x226 s 8 7B 1E 00 40 03 61 47 00 
18:42:09:7933 Rx 1 0x225 s 8 7E 1E 00 80 03 5F 48 00 
18:42:09:7955 Rx 1 0x226 s 8 7B 1E 00 40 03 61 47 00 
18:42:09:8433 Rx 1 0x225 s 8 7E 1E 00 80 03 5F 48 00 
18:42:09:8455 Rx 1 0x226 s 8 7B 1E 00 40 03 61 47 00 
18:42:09:8933 Rx 1 0x225 s 8 7E 1E 00 80 03 5F 48 00 
18:42:09:8955 Rx 1 0x226 s 8 7C 1E 00 40 03 61 47 00 
18:42:09:9433 Rx 1 0x225 s 8 7E 1E 00 80 03 5F 48 00 
18:42:09:9455 Rx 1 0x226 s 8 7B 1E 00 40 03 61 47 00 
18:42:09:9933 Rx 1 0x225 s 8 7E 1E 00 80 03 5F 48 00 
18:42:09:9955 Rx 1 0x226 s 8 7C 1E 00 40 03 61 47 00 
18:42:10:0433 Rx 1 0x225 s 8 7E 1E 00 80 03 5F 48 00 
18:42:10:0456 Rx 1 0x226 s 8 7C 1E 00 40 03 61 47 00 
18:42:10:0933 Rx 1 0x225 s 8 7E 1E 00 80 03 5F 48 00 
18:42:10:0956 Rx 1 0x226 s 8 7B 1E 00 40 03 61 47 00 
18:42:10:1433 Rx 1 0x225 s 8 7E 1E 00 80 03 5F 48 00 
18:42:10:1456 Rx 1 0x226 s 8 7C 1E 00 40 03 61 47 00 
18:42:10:1934 Rx 1 0x225 s 8 7E 1E 00 80 03 5F 48 00 
18:42:10:1956 Rx 1 0x226 s 8 7C 1E 00 40 03 61 47 00 
18:42:10:2434 Rx 1 0x225 s 8 7E 1E 00 80 03 5F 48 00 
18:42:10:2456 Rx 1 0x226 s 8 7C 1E 00 40 03 61 47 00 
18:42:10:2934 Rx 1 0x225 s 8 7E 1E 00 80 03 60 48 00 
18:42:10:2956 Rx 1 0x226 s 8 7C 1E 00 40 03 61 47 00 
18:42:10:3434 Rx 1 0x225 s 8 7E 1E 00 80 03 60 48 00 
18:42:10:3456 Rx 1 0x226 s 8 7C 1E 00 40 03 61 47 00 
18:42:10:3934 Rx 1 0x225 s 8 7E 1E 00 80 03 60 48 00 
18:42:10:3956 Rx 1 0x226 s 8 7C 1E 00 40 03 61 47 00 
18:42:10:4434 Rx 1 0x225 s 8 7E 1E 00 80 03 61 48 00 
18:42:10:4456 Rx 1 0x226 s 8 7C 1E 00 40 03 61 47 00 
18:42:10:4933 Rx 1 0x225 s 8 7E 1E 00 80 03 63 48 00 
18:42:10:4956 Rx 1 0x226 s 8 7C 1E 00 40 03 61 47 00 
18:42:10:5433 Rx 1 0x225 s 8 7E 1E 00 80 03 65 48 00 
18:42:10:5456 Rx 1 0x226 s 8 7C 1E 00 40 03 62 47 00 
18:42:10:5933 Rx 1 0x225 s 8 7E 1E 00 80 03 69 48 00 
18:42:10:5956 Rx 1 0x226 s 8 7C 1E 00 40 03 61 47 00 
18:42:10:6434 Rx 1 0x225 s 8 7E 1E 00 80 03 6D 48 00 
18:42:10:6456 Rx 1 0x226 s 8 7C 1E 00 40 03 61 47 00 
18:42:10:6934 Rx 1 0x225 s 8 7E 1E 00 80 03 6F 48 00 
18:42:10:6956 Rx 1 0x226 s 8 7C 1E 00 40 03 61 47 00 
18:42:10:7434 Rx 1 0x225 s 8 7E 1E 00 80 03 70 48 00 
18:42:10:7456 Rx 1 0x226 s 8 7C 1E 00 40 03 61 47 00 
18:42:10:7934 Rx 1 0x225 s 8 7E 1E 00 80 03 71 48 00 
18:42:10:7956 Rx 1 0x226 s 8 7C 1E 00 40 03 62 47 00 
18:42:10:8434 Rx 1 0x225 s 8 7E 1E 00 80 03 72 48 00 
18:42:10:8456 Rx 1 0x226 s 8 7C 1E 00 40 03 61 47 00 
18:42:10:8934 Rx 1 0x225 s 8 7E 1E 00 80 03 73 48 00 
18:42:10:8956 Rx 1 0x226 s 8 7C 1E 00 40 03 62 47 00 
18:42:10:9434 Rx 1 0x225 s 8 7E 1E 00 80 03 74 48 00 
18:42:10:9456 Rx 1 0x226 s 8 7C 1E 00 40 03 62 47 00 
18:42:10:9885 Tx 1 0x220 s 8 40 FA 00 03 00 00 00 00 
18:42:10:9934 Rx 1 0x225 s 8 7E 1E 00 80 03 74 48 00 
18:42:10:9956 Rx 1 0x226 s 8 7C 1E 00 40 03 61 47 00 
18:42:11:0434 Rx 1 0x225 s 8 7E 1E 00 80 03 76 48 00 
18:42:11:0457 Rx 1 0x226 s 8 7C 1E 00 40 03 61 47 00 
18:42:11:0934 Rx 1 0x225 s 8 7E 1E 00 80 03 78 48 00 
18:42:11:0957 Rx 1 0x226 s 8 7C 1E 00 40 03 62 47 00 
18:42:11:1434 Rx 1 0x225 s 8 7E 1E 00 80 03 7A 48 00 
18:42:11:1457 Rx 1 0x226 s 8 7C 1E 00 40 03 61 47 00 
18:42:11:1934 Rx 1 0x225 s 8 7E 1E 00 80 03 7E 48 00 
18:42:11:1957 Rx 1 0x226 s 8 7C 1E 00 40 03 61 47 00 
18:42:11:2435 Rx 1 0x225 s 8 7E 1E 00 80 03 81 48 00 
18:42:11:2457 Rx 1 0x226 s 8 7C 1E 00 40 03 61 47 00 
18:42:11:2935 Rx 1 0x225 s 8 7E 1E 00 80 03 83 48 00 
18:42:11:2957 Rx 1 0x226 s 8 7C 1E 00 40 03 61 47 00 
18:42:11:3435 Rx 1 0x225 s 8 7E 1E 00 80 03 85 48 00 
18:42:11:3457 Rx 1 0x226 s 8 7C 1E 00 40 03 61 47 00 
18:42:11:3935 Rx 1 0x225 s 8 7E 1E 00 80 03 87 48 00 
18:42:11:3957 Rx 1 0x226 s 8 7C 1E 00 40 03 62 47 00 
18:42:11:4435 Rx 1 0x225 s 8 7E 1E 00 80 03 89 48 00 
18:42:11:4457 Rx 1 0x226 s 8 7C 1E 00 40 03 61 47 00 
18:42:11:4935 Rx 1 0x225 s 8 7E 1E 00 80 03 8D 48 00 
18:42:11:4958 Rx 1 0x226 s 8 7C 1E 00 40 03 62 47 00 
18:42:11:5436 Rx 1 0x225 s 8 7E 1E 00 80 03 91 48 00 
18:42:11:5458 Rx 1 0x226 s 8 7C 1E 00 40 03 61 47 00 
18:42:11:5936 Rx 1 0x225 s 8 7E 1E 00 80 03 95 48 00 
18:42:11:5958 Rx 1 0x226 s 8 7C 1E 00 40 03 61 47 00 
18:42:11:6436 Rx 1 0x225 s 8 7E 1E 00 80 03 98 48 00 
18:42:11:6458 Rx 1 0x226 s 8 7C 1E 00 40 03 61 47 00 
18:42:11:6936 Rx 1 0x225 s 8 7E 1E 00 00 03 8F 48 00 
18:42:11:6958 Rx 1 0x226 s 8 7C 1E 00 40 03 62 47 00 
18:42:11:7436 Rx 1 0x225 s 8 7E 1E 00 40 03 5A 48 00 
18:42:11:7458 Rx 1 0x226 s 8 7C 1E 00 40 03 61 47 00 
18:42:11:7936 Rx 1 0x225 s 8 7E 1E 00 40 03 5E 48 00 
18:42:11:7958 Rx 1 0x226 s 8 4F 1E 4D 80 03 64 47 00 
18:42:11:8436 Rx 1 0x225 s 8 7E 1E 00 40 03 5F 48 00 
18:42:11:8458 Rx 1 0x226 s 8 D9 1C E8 80 03 64 47 00 
18:42:11:8936 Rx 1 0x225 s 8 7E 1E 00 40 03 5F 48 00 
18:42:11:8958 Rx 1 0x226 s 8 E4 1A DF 80 03 C8 47 00 
18:42:11:9436 Rx 1 0x225 s 8 7E 1E 00 40 03 5F 48 00 
18:42:11:9458 Rx 1 0x226 s 8 71 19 D5 80 03 C8 47 00 
18:42:11:9936 Rx 1 0x225 s 8 7E 1E 00 40 03 5F 48 00 
18:42:11:9959 Rx 1 0x226 s 8 7C 17 E8 80 03 64 47 00 
18:42:12:0436 Rx 1 0x225 s 8 7E 1E 00 40 03 5F 48 00 
18:42:12:0459 Rx 1 0x226 s 8 50 16 B1 80 03 C8 47 00 
18:42:12:0936 Rx 1 0x225 s 8 7E 1E 00 40 03 5F 48 00 
18:42:12:0959 Rx 1 0x226 s 8 DD 14 85 40 03 C4 47 00 
18:42:12:1436 Rx 1 0x225 s 8 7E 1E 00 40 03 5F 48 00 
18:42:12:1459 Rx 1 0x226 s 8 DF 14 00 40 03 57 47 00 
18:42:12:1937 Rx 1 0x225 s 8 7E 1E 00 40 03 5F 48 00 
18:42:12:1959 Rx 1 0x226 s 8 DF 14 00 40 03 60 47 00 
18:42:12:2437 Rx 1 0x225 s 8 7E 1E 00 40 03 5F 48 00 
18:42:12:2459 Rx 1 0x226 s 8 DF 14 00 40 03 60 47 00 
18:42:12:2937 Rx 1 0x225 s 8 7E 1E 00 40 03 5F 48 00 
18:42:12:2959 Rx 1 0x226 s 8 DF 14 00 40 03 61 47 00 
18:42:12:3437 Rx 1 0x225 s 8 7E 1E 00 40 03 5F 48 00 
18:42:12:3459 Rx 1 0x226 s 8 DF 14 00 40 03 60 47 00 
18:42:12:3937 Rx 1 0x225 s 8 7E 1E 00 40 03 5F 48 00 
18:42:12:3959 Rx 1 0x226 s 8 DF 14 00 40 03 60 47 00 
18:42:12:4437 Rx 1 0x225 s 8 7E 1E 00 40 03 5F 48 00 
18:42:12:4459 Rx 1 0x226 s 8 DF 14 00 40 03 60 47 00 
18:42:12:4937 Rx 1 0x225 s 8 7E 1E 00 40 03 5F 48 00 
18:42:12:4959 Rx 1 0x226 s 8 DF 14 00 40 03 60 47 00 
18:42:12:5437 Rx 1 0x225 s 8 7E 1E 00 40 03 5F 48 00 
18:42:12:5459 Rx 1 0x226 s 8 DF 14 00 40 03 61 47 00 
18:42:12:5937 Rx 1 0x225 s 8 7E 1E 00 40 03 5F 48 00 
18:42:12:5959 Rx 1 0x226 s 8 DF 14 00 40 03 60 47 00 
18:42:12:6437 Rx 1 0x225 s 8 7E 1E 00 40 03 5F 48 00 
18:42:12:6459 Rx 1 0x226 s 8 DF 14 00 40 03 60 47 00 
18:42:12:6937 Rx 1 0x225 s 8 7E 1E 00 40 03 5F 48 00 
18:42:12:6959 Rx 1 0x226 s 8 DF 14 00 40 03 60 47 00 
18:42:12:7437 Rx 1 0x225 s 8 7E 1E 00 40 03 5F 48 00 
18:42:12:7459 Rx 1 0x226 s 8 DF 14 00 40 03 60 47 00 
18:42:12:7937 Rx 1 0x225 s 8 7E 1E 00 40 03 5F 48 00 
18:42:12:7959 Rx 1 0x226 s 8 DF 14 00 40 03 60 47 00 
18:42:12:8437 Rx 1 0x225 s 8 7E 1E 00 40 03 5F 48 00 
18:42:12:8460 Rx 1 0x226 s 8 DF 14 00 40 03 60 47 00 
18:42:12:8937 Rx 1 0x225 s 8 7E 1E 00 40 03 5F 48 00 
18:42:12:8960 Rx 1 0x226 s 8 DF 14 00 40 03 60 47 00 
18:42:12:9437 Rx 1 0x225 s 8 7E 1E 00 40 03 5F 48 00 
18:42:12:9460 Rx 1 0x226 s 8 DF 14 00 40 03 60 47 00 
18:42:12:9937 Rx 1 0x225 s 8 7E 1E 00 40 03 5F 48 00 
18:42:12:9960 Rx 1 0x226 s 8 DF 14 00 40 03 60 47 00 
18:42:13:0438 Rx 1 0x225 s 8 7E 1E 00 40 03 5F 48 00 
18:42:13:0460 Rx 1 0x226 s 8 DF 14 00 40 03 60 47 00 
18:42:13:0938 Rx 1 0x225 s 8 7E 1E 00 40 03 5F 48 00 
18:42:13:0960 Rx 1 0x226 s 8 DF 14 00 40 03 60 47 00 
18:42:13:1438 Rx 1 0x225 s 8 7E 1E 00 40 03 5F 48 00 
18:42:13:1460 Rx 1 0x226 s 8 DF 14 00 40 03 61 47 00 
18:42:13:1938 Rx 1 0x225 s 8 7E 1E 00 40 03 5F 48 00 
18:42:13:1960 Rx 1 0x226 s 8 DF 14 00 40 03 61 47 00 
18:42:13:2438 Rx 1 0x225 s 8 7E 1E 00 40 03 5F 48 00 
18:42:13:2460 Rx 1 0x226 s 8 DF 14 00 40 03 61 47 00 
18:42:13:2938 Rx 1 0x225 s 8 7E 1E 00 40 03 5F 48 00 
18:42:13:2960 Rx 1 0x226 s 8 DF 14 00 40 03 60 47 00 
18:42:13:3438 Rx 1 0x225 s 8 7E 1E 00 40 03 5F 48 00 
18:42:13:3460 Rx 1 0x226 s 8 DF 14 00 40 03 61 47 00 
18:42:13:3938 Rx 1 0x225 s 8 7E 1E 00 40 03 5F 48 00 
18:42:13:3960 Rx 1 0x226 s 8 DF 14 00 40 03 60 47 00 
18:42:13:4438 Rx 1 0x225 s 8 7E 1E 00 40 03 5F 48 00 
18:42:13:4460 Rx 1 0x226 s 8 DF 14 00 40 03 60 47 00 
18:42:13:4938 Rx 1 0x225 s 8 7E 1E 00 40 03 5F 48 00 
18:42:13:4961 Rx 1 0x226 s 8 DF 14 00 40 03 60 47 00 
18:42:13:5439 Rx 1 0x225 s 8 7E 1E 00 40 03 5F 48 00 
18:42:13:5461 Rx 1 0x226 s 8 DF 14 00 40 03 60 47 00 
18:42:13:5939 Rx 1 0x225 s 8 7E 1E 00 40 03 5F 48 00 
18:42:13:5961 Rx 1 0x226 s 8 DF 14 00 40 03 61 47 00 
18:42:13:6439 Rx 1 0x225 s 8 7E 1E 00 40 03 5F 48 00 
18:42:13:6461 Rx 1 0x226 s 8 DF 14 00 40 03 60 47 00 
18:42:13:6939 Rx 1 0x225 s 8 7E 1E 00 40 03 5F 48 00 
18:42:13:6961 Rx 1 0x226 s 8 DF 14 00 40 03 60 47 00 
18:42:13:7439 Rx 1 0x225 s 8 7E 1E 00 40 03 5F 48 00 
18:42:13:7461 Rx 1 0x226 s 8 DF 14 00 40 03 61 47 00 
18:42:13:7939 Rx 1 0x225 s 8 7E 1E 00 40 03 5F 48 00 
18:42:13:7961 Rx 1 0x226 s 8 DF 14 00 40 03 60 47 00 
18:42:13:8439 Rx 1 0x225 s 8 7E 1E 00 80 03 5F 48 00 
18:42:13:8461 Rx 1 0x226 s 8 DF 14 00 40 03 60 47 00 
18:42:13:8939 Rx 1 0x225 s 8 7E 1E 00 80 03 5F 48 00 
18:42:13:8961 Rx 1 0x226 s 8 DF 14 00 40 03 61 47 00 
18:42:13:9439 Rx 1 0x225 s 8 7E 1E 00 80 03 5F 48 00 
18:42:13:9462 Rx 1 0x226 s 8 DF 14 00 40 03 61 47 00 
18:42:13:9939 Rx 1 0x225 s 8 7E 1E 00 80 03 5F 48 00 
18:42:13:9962 Rx 1 0x226 s 8 DF 14 00 40 03 60 47 00 
18:42:14:0439 Rx 1 0x225 s 8 7E 1E 00 80 03 5F 48 00 
18:42:14:0462 Rx 1 0x226 s 8 DF 14 00 40 03 60 47 00 
18:42:14:0939 Rx 1 0x225 s 8 7E 1E 00 80 03 5F 48 00 
18:42:14:0962 Rx 1 0x226 s 8 DF 14 00 40 03 60 47 00 
18:42:14:1440 Rx 1 0x225 s 8 7E 1E 00 80 03 5F 48 00 
18:42:14:1462 Rx 1 0x226 s 8 DF 14 00 40 03 60 47 00 
18:42:14:1940 Rx 1 0x225 s 8 7E 1E 00 80 03 5F 48 00 
18:42:14:1962 Rx 1 0x226 s 8 DF 14 00 40 03 61 47 00 
18:42:14:2440 Rx 1 0x225 s 8 7E 1E 00 80 03 5F 48 00 
18:42:14:2462 Rx 1 0x226 s 8 74 14 7D 80 03 64 47 00 
18:42:14:2940 Rx 1 0x225 s 8 7E 1E 00 80 03 5F 48 00 
18:42:14:2962 Rx 1 0x226 s 8 4F 13 8E 80 03 64 47 00 
18:42:14:3440 Rx 1 0x225 s 8 7E 1E 00 80 03 5F 48 00 
18:42:14:3462 Rx 1 0x226 s 8 57 12 79 80 03 C8 47 00 
18:42:14:3940 Rx 1 0x225 s 8 7E 1E 00 80 03 5F 48 00 
18:42:14:3962 Rx 1 0x226 s 8 77 11 6D 80 03 C8 47 00 
18:42:14:4440 Rx 1 0x225 s 8 7E 1E 00 80 03 5F 48 00 
18:42:14:4463 Rx 1 0x226 s 8 AE 10 63 80 03 C8 47 00 
18:42:14:4940 Rx 1 0x225 s 8 7E 1E 00 80 03 5F 48 00 
18:42:14:4963 Rx 1 0x226 s 8 E5 0F 5F 80 03 C8 47 00 
18:42:14:5440 Rx 1 0x225 s 8 7E 1E 00 80 03 5F 48 00 
18:42:14:5463 Rx 1 0x226 s 8 73 0F 02 40 03 AE 47 00 
18:42:14:5940 Rx 1 0x225 s 8 7E 1E 00 80 03 5F 48 00 
18:42:14:5963 Rx 1 0x226 s 8 73 0F 00 40 03 59 47 00 
18:42:14:6440 Rx 1 0x225 s 8 7E 1E 00 80 03 5F 48 00 
18:42:14:6463 Rx 1 0x226 s 8 73 0F 00 40 03 60 47 00 
18:42:14:6940 Rx 1 0x225 s 8 7E 1E 00 80 03 5F 48 00 
18:42:14:6963 Rx 1 0x226 s 8 73 0F 00 40 03 60 47 00 
18:42:14:7440 Rx 1 0x225 s 8 7E 1E 00 80 03 5F 48 00 
18:42:14:7463 Rx 1 0x226 s 8 73 0F 00 40 03 60 47 00 
18:42:14:7941 Rx 1 0x225 s 8 7E 1E 00 80 03 5F 48 00 
18:42:14:7963 Rx 1 0x226 s 8 73 0F 00 40 03 60 47 00 
18:42:14:8441 Rx 1 0x225 s 8 7E 1E 00 80 03 60 48 00 
18:42:14:8463 Rx 1 0x226 s 8 73 0F 00 40 03 60 47 00 
18:42:14:8941 Rx 1 0x225 s 8 7E 1E 00 80 03 60 48 00 
18:42:14:8963 Rx 1 0x226 s 8 73 0F 00 40 03 60 47 00 
18:42:14:9441 Rx 1 0x225 s 8 7E 1E 00 80 03 61 48 00 
18:42:14:9463 Rx 1 0x226 s 8 73 0F 00 40 03 60 47 00 
18:42:14:9941 Rx 1 0x225 s 8 7E 1E 00 80 03 62 48 00 
18:42:14:9963 Rx 1 0x226 s 8 73 0F 00 40 03 60 47 00 
18:42:15:0441 Rx 1 0x225 s 8 7E 1E 00 80 03 64 48 00 
18:42:15:0463 Rx 1 0x226 s 8 73 0F 00 40 03 60 47 00 
18:42:15:0941 Rx 1 0x225 s 8 7E 1E 00 80 03 68 48 00 
18:42:15:0963 Rx 1 0x226 s 8 73 0F 00 40 03 60 47 00 
18:42:15:1441 Rx 1 0x225 s 8 7E 1E 00 80 03 6C 48 00 
18:42:15:1463 Rx 1 0x226 s 8 73 0F 00 40 03 60 47 00 
18:42:15:1941 Rx 1 0x225 s 8 7E 1E 00 80 03 6E 48 00 
18:42:15:1964 Rx 1 0x226 s 8 73 0F 00 40 03 60 47 00 
18:42:15:2441 Rx 1 0x225 s 8 7E 1E 00 80 03 70 48 00 
18:42:15:2464 Rx 1 0x226 s 8 73 0F 00 40 03 60 47 00 
18:42:15:2941 Rx 1 0x225 s 8 7E 1E 00 80 03 71 48 00 
18:42:15:2964 Rx 1 0x226 s 8 73 0F 00 40 03 60 47 00 
18:42:15:3441 Rx 1 0x225 s 8 7E 1E 00 80 03 71 48 00 
18:42:15:3464 Rx 1 0x226 s 8 73 0F 00 40 03 60 47 00 
18:42:15:3941 Rx 1 0x225 s 8 7E 1E 00 80 03 72 48 00 
18:42:15:3964 Rx 1 0x226 s 8 73 0F 00 40 03 60 47 00 
18:42:15:4441 Rx 1 0x225 s 8 7E 1E 00 80 03 73 48 00 
18:42:15:4464 Rx 1 0x226 s 8 73 0F 00 40 03 60 47 00 
18:42:15:4942 Rx 1 0x225 s 8 7E 1E 00 80 03 74 48 00 
18:42:15:4964 Rx 1 0x226 s 8 73 0F 00 40 03 60 47 00 
18:42:15:5442 Rx 1 0x225 s 8 7E 1E 00 80 03 76 48 00 
18:42:15:5464 Rx 1 0x226 s 8 73 0F 00 40 03 60 47 00 
18:42:15:5942 Rx 1 0x225 s 8 7E 1E 00 80 03 77 48 00 
18:42:15:5965 Rx 1 0x226 s 8 73 0F 00 40 03 60 47 00 
18:42:15:6442 Rx 1 0x225 s 8 7E 1E 00 80 03 79 48 00 
18:42:15:6465 Rx 1 0x226 s 8 73 0F 00 40 03 60 47 00 
18:42:15:6942 Rx 1 0x225 s 8 7E 1E 00 80 03 7D 48 00 
18:42:15:6965 Rx 1 0x226 s 8 73 0F 00 40 03 60 47 00 
18:42:15:7442 Rx 1 0x225 s 8 7E 1E 00 80 03 80 48 00 
18:42:15:7465 Rx 1 0x226 s 8 73 0F 00 40 03 60 47 00 
18:42:15:7943 Rx 1 0x225 s 8 7E 1E 00 80 03 82 48 00 
18:42:15:7965 Rx 1 0x226 s 8 73 0F 00 40 03 60 47 00 
18:42:15:8443 Rx 1 0x225 s 8 7E 1E 00 80 03 84 48 00 
18:42:15:8465 Rx 1 0x226 s 8 73 0F 00 40 03 60 47 00 
18:42:15:8943 Rx 1 0x225 s 8 7E 1E 00 80 03 86 48 00 
18:42:15:8965 Rx 1 0x226 s 8 73 0F 00 40 03 60 47 00 
18:42:15:9443 Rx 1 0x225 s 8 7E 1E 00 80 03 88 48 00 
18:42:15:9465 Rx 1 0x226 s 8 73 0F 00 40 03 60 47 00 
18:42:15:9943 Rx 1 0x225 s 8 7E 1E 00 80 03 8B 48 00 
18:42:15:9965 Rx 1 0x226 s 8 73 0F 00 40 03 60 47 00 
18:42:16:0443 Rx 1 0x225 s 8 7E 1E 00 80 03 90 48 00 
18:42:16:0465 Rx 1 0x226 s 8 73 0F 00 40 03 60 47 00 
18:42:16:0943 Rx 1 0x225 s 8 7E 1E 00 80 03 94 48 00 
18:42:16:0965 Rx 1 0x226 s 8 73 0F 00 40 03 60 47 00 
18:42:16:1443 Rx 1 0x225 s 8 7E 1E 00 80 03 98 48 00 
18:42:16:1465 Rx 1 0x226 s 8 73 0F 00 40 03 60 47 00 
18:42:16:1943 Rx 1 0x225 s 8 7E 1E 00 80 03 9A 48 00 
18:42:16:1965 Rx 1 0x226 s 8 73 0F 00 40 03 60 47 00 
18:42:16:2443 Rx 1 0x225 s 8 7E 1E 00 40 03 58 48 00 
18:42:16:2466 Rx 1 0x226 s 8 73 0F 00 40 03 60 47 00 
18:42:16:2943 Rx 1 0x225 s 8 7E 1E 00 40 03 5C 48 00 
18:42:16:2966 Rx 1 0x226 s 8 73 0F 00 40 03 60 47 00 
18:42:16:3443 Rx 1 0x225 s 8 7E 1E 00 40 03 5F 48 00 
18:42:16:3466 Rx 1 0x226 s 8 73 0F 00 40 03 60 47 00 
18:42:16:3943 Rx 1 0x225 s 8 7E 1E 00 40 03 5F 48 00 
18:42:16:3966 Rx 1 0x226 s 8 73 0F 00 40 03 60 47 00 
18:42:16:4444 Rx 1 0x225 s 8 7E 1E 00 40 03 5F 48 00 
18:42:16:4466 Rx 1 0x226 s 8 73 0F 00 40 03 60 47 00 
18:42:16:4944 Rx 1 0x225 s 8 7E 1E 00 40 03 5F 48 00 
18:42:16:4966 Rx 1 0x226 s 8 73 0F 00 40 03 60 47 00 
18:42:16:5444 Rx 1 0x225 s 8 7E 1E 00 40 03 5F 48 00 
18:42:16:5466 Rx 1 0x226 s 8 73 0F 00 40 03 60 47 00 
18:42:16:5944 Rx 1 0x225 s 8 7E 1E 00 40 03 5F 48 00 
18:42:16:5966 Rx 1 0x226 s 8 73 0F 00 40 03 60 47 00 
18:42:16:6444 Rx 1 0x225 s 8 7E 1E 00 40 03 5F 48 00 
18:42:16:6466 Rx 1 0x226 s 8 73 0F 00 40 03 60 47 00 
18:42:16:6944 Rx 1 0x225 s 8 7E 1E 00 40 03 5F 48 00 
18:42:16:6966 Rx 1 0x226 s 8 3E 0F 4E 80 03 C8 47 00 
18:42:16:7444 Rx 1 0x225 s 8 7E 1E 00 40 03 5F 48 00 
18:42:16:7466 Rx 1 0x226 s 8 86 0E 61 80 03 C8 47 00 
18:42:16:7944 Rx 1 0x225 s 8 7E 1E 00 40 03 5F 48 00 
18:42:16:7967 Rx 1 0x226 s 8 C1 0D 5E 80 03 C8 47 00 
18:42:16:8444 Rx 1 0x225 s 8 7E 1E 00 40 03 5F 48 00 
18:42:16:8467 Rx 1 0x226 s 8 FE 0C 5C 80 03 C8 47 00 
18:42:16:8944 Rx 1 0x225 s 8 7E 1E 00 40 03 5F 48 00 
18:42:16:8967 Rx 1 0x226 s 8 38 0C 5B 80 03 C8 47 00 
18:42:16:9444 Rx 1 0x225 s 8 7E 1E 00 40 03 5F 48 00 
18:42:16:9467 Rx 1 0x226 s 8 74 0B 5B 80 03 64 47 00 
18:42:16:9945 Rx 1 0x225 s 8 7E 1E 00 40 03 5F 48 00 
18:42:16:9967 Rx 1 0x226 s 8 2E 0B 01 40 03 7E 47 00 
18:42:17:0445 Rx 1 0x225 s 8 7E 1E 00 40 03 5F 48 00 
18:42:17:0467 Rx 1 0x226 s 8 2E 0B 00 40 03 5A 47 00 
18:42:17:0945 Rx 1 0x225 s 8 7E 1E 00 40 03 5F 48 00 
18:42:17:0967 Rx 1 0x226 s 8 2E 0B 00 40 03 5E 47 00 
18:42:17:1445 Rx 1 0x225 s 8 7E 1E 00 40 03 5F 48 00 
18:42:17:1467 Rx 1 0x226 s 8 2E 0B 00 40 03 5E 47 00 
18:42:17:1945 Rx 1 0x225 s 8 7E 1E 00 40 03 5F 48 00 
18:42:17:1967 Rx 1 0x226 s 8 2E 0B 00 40 03 5E 47 00 
18:42:17:2445 Rx 1 0x225 s 8 7E 1E 00 40 03 5F 48 00 
18:42:17:2467 Rx 1 0x226 s 8 2E 0B 00 40 03 5E 47 00 
18:42:17:2945 Rx 1 0x225 s 8 7E 1E 00 40 03 5F 48 00 
18:42:17:2967 Rx 1 0x226 s 8 2E 0B 00 40 03 5E 47 00 
18:42:17:3445 Rx 1 0x225 s 8 7E 1E 00 40 03 5F 48 00 
18:42:17:3467 Rx 1 0x226 s 8 2E 0B 00 40 03 5E 47 00 
18:42:17:3945 Rx 1 0x225 s 8 7E 1E 00 40 03 5F 48 00 
18:42:17:3967 Rx 1 0x226 s 8 2E 0B 00 40 03 5E 47 00 
18:42:17:4445 Rx 1 0x225 s 8 7E 1E 00 40 03 5F 48 00 
18:42:17:4468 Rx 1 0x226 s 8 2E 0B 00 40 03 5E 47 00 
18:42:17:4945 Rx 1 0x225 s 8 7E 1E 00 40 03 5F 48 00 
18:42:17:4968 Rx 1 0x226 s 8 2E 0B 00 40 03 5E 47 00 
18:42:17:5445 Rx 1 0x225 s 8 7E 1E 00 40 03 5F 48 00 
18:42:17:5468 Rx 1 0x226 s 8 2E 0B 00 40 03 5E 47 00 
18:42:17:5945 Rx 1 0x225 s 8 7E 1E 00 40 03 5F 48 00 
18:42:17:5968 Rx 1 0x226 s 8 2E 0B 00 40 03 5E 47 00 
18:42:17:6446 Rx 1 0x225 s 8 7E 1E 00 40 03 5F 48 00 
18:42:17:6468 Rx 1 0x226 s 8 2E 0B 00 40 03 5E 47 00 
18:42:17:6946 Rx 1 0x225 s 8 7E 1E 00 40 03 5F 48 00 
18:42:17:6968 Rx 1 0x226 s 8 2E 0B 00 40 03 5E 47 00 
18:42:17:7446 Rx 1 0x225 s 8 7E 1E 00 40 03 5F 48 00 
18:42:17:7468 Rx 1 0x226 s 8 2E 0B 00 40 03 5E 47 00 
18:42:17:7946 Rx 1 0x225 s 8 7E 1E 00 40 03 5F 48 00 
18:42:17:7968 Rx 1 0x226 s 8 2E 0B 00 40 03 5E 47 00 
18:42:17:8446 Rx 1 0x225 s 8 7E 1E 00 40 03 5F 48 00 
18:42:17:8468 Rx 1 0x226 s 8 2E 0B 00 40 03 5E 47 00 
18:42:17:8946 Rx 1 0x225 s 8 7E 1E 00 40 03 5F 48 00 
18:42:17:8968 Rx 1 0x226 s 8 2E 0B 00 40 03 5E 47 00 
18:42:17:9446 Rx 1 0x225 s 8 7E 1E 00 40 03 5F 48 00 
18:42:17:9468 Rx 1 0x226 s 8 2E 0B 00 40 03 5E 47 00 
18:42:17:9946 Rx 1 0x225 s 8 7E 1E 00 40 03 5F 48 00 
18:42:17:9968 Rx 1 0x226 s 8 2E 0B 00 40 03 5E 47 00 
18:42:18:0446 Rx 1 0x225 s 8 7E 1E 00 40 03 5F 48 00 
18:42:18:0469 Rx 1 0x226 s 8 2E 0B 00 40 03 5E 47 00 
18:42:18:0946 Rx 1 0x225 s 8 7E 1E 00 40 03 5F 48 00 
18:42:18:0969 Rx 1 0x226 s 8 2E 0B 00 40 03 5E 47 00 
18:42:18:1446 Rx 1 0x225 s 8 7E 1E 00 40 03 5F 48 00 
18:42:18:1469 Rx 1 0x226 s 8 2E 0B 00 40 03 5E 47 00 
18:42:18:1946 Rx 1 0x225 s 8 7E 1E 00 40 03 5F 48 00 
18:42:18:1969 Rx 1 0x226 s 8 2E 0B 00 40 03 5E 47 00 
18:42:18:2447 Rx 1 0x225 s 8 7E 1E 00 40 03 5F 48 00 
18:42:18:2469 Rx 1 0x226 s 8 2E 0B 00 40 03 5E 47 00 
18:42:18:2947 Rx 1 0x225 s 8 7E 1E 00 40 03 5F 48 00 
18:42:18:2969 Rx 1 0x226 s 8 2E 0B 00 40 03 5E 47 00 
18:42:18:3447 Rx 1 0x225 s 8 7E 1E 00 80 03 5F 48 00 
18:42:18:3469 Rx 1 0x226 s 8 2E 0B 00 40 03 5E 47 00 
18:42:18:3947 Rx 1 0x225 s 8 7E 1E 00 80 03 5F 48 00 
18:42:18:3969 Rx 1 0x226 s 8 2E 0B 00 40 03 5E 47 00 
18:42:18:4447 Rx 1 0x225 s 8 7E 1E 00 80 03 5F 48 00 
18:42:18:4469 Rx 1 0x226 s 8 2E 0B 00 40 03 5E 47 00 
18:42:18:4947 Rx 1 0x225 s 8 7E 1E 00 80 03 5F 48 00 
18:42:18:4970 Rx 1 0x226 s 8 2E 0B 00 40 03 5E 47 00 
18:42:18:5447 Rx 1 0x225 s 8 7E 1E 00 80 03 5F 48 00 
18:42:18:5470 Rx 1 0x226 s 8 2E 0B 00 40 03 5E 47 00 
18:42:18:5947 Rx 1 0x225 s 8 7E 1E 00 80 03 5F 48 00 
18:42:18:5970 Rx 1 0x226 s 8 2E 0B 00 40 03 5E 47 00 
18:42:18:6447 Rx 1 0x225 s 8 7E 1E 00 80 03 5F 48 00 
18:42:18:6470 Rx 1 0x226 s 8 2E 0B 00 40 03 5E 47 00 
18:42:18:6947 Rx 1 0x225 s 8 7E 1E 00 80 03 5F 48 00 
18:42:18:6970 Rx 1 0x226 s 8 2E 0B 00 40 03 5E 47 00 
18:42:18:7447 Rx 1 0x225 s 8 7E 1E 00 80 03 5F 48 00 
18:42:18:7470 Rx 1 0x226 s 8 2E 0B 00 40 03 5E 47 00 
18:42:18:7947 Rx 1 0x225 s 8 7E 1E 00 80 03 5F 48 00 
18:42:18:7970 Rx 1 0x226 s 8 2E 0B 00 40 03 5E 47 00 
18:42:18:8447 Rx 1 0x225 s 8 7E 1E 00 80 03 5F 48 00 
18:42:18:8470 Rx 1 0x226 s 8 2E 0B 00 40 03 5E 47 00 
18:42:18:8948 Rx 1 0x225 s 8 7E 1E 00 80 03 5F 48 00 
18:42:18:8970 Rx 1 0x226 s 8 2E 0B 00 40 03 5E 47 00 
18:42:18:9448 Rx 1 0x225 s 8 7E 1E 00 80 03 5F 48 00 
18:42:18:9470 Rx 1 0x226 s 8 2E 0B 00 40 03 5E 47 00 
18:42:18:9948 Rx 1 0x225 s 8 7E 1E 00 80 03 5F 48 00 
18:42:18:9970 Rx 1 0x226 s 8 2E 0B 00 40 03 5E 47 00 
18:42:19:0448 Rx 1 0x225 s 8 7E 1E 00 80 03 5F 48 00 
18:42:19:0470 Rx 1 0x226 s 8 2E 0B 00 40 03 5E 47 00 
18:42:19:0948 Rx 1 0x225 s 8 7E 1E 00 80 03 5F 48 00 
18:42:19:0971 Rx 1 0x226 s 8 2E 0B 00 40 03 5E 47 00 
18:42:19:1448 Rx 1 0x225 s 8 7E 1E 00 80 03 5F 48 00 
18:42:19:1471 Rx 1 0x226 s 8 2E 0B 00 80 03 B5 47 00 
18:42:19:1948 Rx 1 0x225 s 8 7E 1E 00 80 03 5F 48 00 
18:42:19:1971 Rx 1 0x226 s 8 02 0B 18 80 03 64 47 00 
18:42:19:2448 Rx 1 0x225 s 8 7E 1E 00 80 03 5F 48 00 
18:42:19:2471 Rx 1 0x226 s 8 E6 0A 08 80 03 64 47 00 
18:42:19:2948 Rx 1 0x225 s 8 7E 1E 00 80 03 5F 48 00 
18:42:19:2971 Rx 1 0x226 s 8 DF 0A 01 80 03 64 47 00 
18:42:19:3448 Rx 1 0x225 s 8 7E 1E 00 80 03 60 48 00 
18:42:19:3471 Rx 1 0x226 s 8 DF 0A 00 80 03 64 47 00 
18:42:19:3948 Rx 1 0x225 s 8 7E 1E 00 80 03 60 48 00 
18:42:19:3971 Rx 1 0x226 s 8 DF 0A 00 80 03 64 47 00 
18:42:19:4448 Rx 1 0x225 s 8 7E 1E 00 80 03 60 48 00 
18:42:19:4471 Rx 1 0x226 s 8 DF 0A 00 00 03 B6 47 00 
18:42:19:4949 Rx 1 0x225 s 8 7E 1E 00 80 03 61 48 00 
18:42:19:4971 Rx 1 0x226 s 8 E0 0A 00 40 03 57 47 00 
18:42:19:5449 Rx 1 0x225 s 8 7E 1E 00 80 03 62 48 00 
18:42:19:5471 Rx 1 0x226 s 8 E0 0A 00 40 03 5F 47 00 
18:42:19:5949 Rx 1 0x225 s 8 7E 1E 00 80 03 64 48 00 
18:42:19:5971 Rx 1 0x226 s 8 E0 0A 00 40 03 5F 47 00 
18:42:19:6449 Rx 1 0x225 s 8 7E 1E 00 80 03 69 48 00 
18:42:19:6471 Rx 1 0x226 s 8 E0 0A 00 40 03 5F 47 00 
18:42:19:6949 Rx 1 0x225 s 8 7E 1E 00 80 03 6D 48 00 
18:42:19:6972 Rx 1 0x226 s 8 E0 0A 00 40 03 5F 47 00 
18:42:19:7449 Rx 1 0x225 s 8 7E 1E 00 80 03 6E 48 00 
18:42:19:7472 Rx 1 0x226 s 8 E0 0A 00 40 03 5F 47 00 
18:42:19:7949 Rx 1 0x225 s 8 7E 1E 00 80 03 70 48 00 
18:42:19:7972 Rx 1 0x226 s 8 E0 0A 00 40 03 5F 47 00 
18:42:19:8449 Rx 1 0x225 s 8 7E 1E 00 80 03 71 48 00 
18:42:19:8472 Rx 1 0x226 s 8 E0 0A 00 40 03 5F 47 00 
18:42:19:8949 Rx 1 0x225 s 8 7E 1E 00 80 03 72 48 00 
18:42:19:8972 Rx 1 0x226 s 8 E0 0A 00 40 03 5F 47 00 
18:42:19:9449 Rx 1 0x225 s 8 7E 1E 00 80 03 72 48 00 
18:42:19:9472 Rx 1 0x226 s 8 E0 0A 00 40 03 5F 47 00 
18:42:19:9949 Rx 1 0x225 s 8 7E 1E 00 80 03 73 48 00 
18:42:19:9972 Rx 1 0x226 s 8 E0 0A 00 40 03 5F 47 00 
18:42:20:0449 Rx 1 0x225 s 8 7E 1E 00 80 03 75 48 00 
18:42:20:0472 Rx 1 0x226 s 8 E0 0A 00 40 03 5F 47 00 
18:42:20:0949 Rx 1 0x225 s 8 7E 1E 00 80 03 75 48 00 
18:42:20:0972 Rx 1 0x226 s 8 E0 0A 00 40 03 5F 47 00 
18:42:20:1450 Rx 1 0x225 s 8 7E 1E 00 80 03 77 48 00 
18:42:20:1472 Rx 1 0x226 s 8 E0 0A 00 40 03 5F 47 00 
18:42:20:1950 Rx 1 0x225 s 8 7E 1E 00 80 03 79 48 00 
18:42:20:1972 Rx 1 0x226 s 8 E0 0A 00 40 03 5F 47 00 
18:42:20:2450 Rx 1 0x225 s 8 7E 1E 00 80 03 7C 48 00 
18:42:20:2472 Rx 1 0x226 s 8 E0 0A 00 40 03 5F 47 00 
18:42:20:2950 Rx 1 0x225 s 8 7E 1E 00 80 03 7F 48 00 
18:42:20:2973 Rx 1 0x226 s 8 E0 0A 00 40 03 5F 47 00 
18:42:20:3450 Rx 1 0x225 s 8 7E 1E 00 80 03 82 48 00 
18:42:20:3473 Rx 1 0x226 s 8 E0 0A 00 40 03 5F 47 00 
18:42:20:3950 Rx 1 0x225 s 8 7E 1E 00 80 03 84 48 00 
18:42:20:3973 Rx 1 0x226 s 8 E0 0A 00 40 03 5F 47 00 
18:42:20:4450 Rx 1 0x225 s 8 7E 1E 00 80 03 86 48 00 
18:42:20:4473 Rx 1 0x226 s 8 E0 0A 00 40 03 5F 47 00 
18:42:20:4950 Rx 1 0x225 s 8 7E 1E 00 80 03 89 48 00 
18:42:20:4973 Rx 1 0x226 s 8 E0 0A 00 40 03 5F 47 00 
18:42:20:5450 Rx 1 0x225 s 8 7E 1E 00 80 03 8B 48 00 
18:42:20:5473 Rx 1 0x226 s 8 E0 0A 00 40 03 5F 47 00 
18:42:20:5950 Rx 1 0x225 s 8 7E 1E 00 80 03 90 48 00 
18:42:20:5973 Rx 1 0x226 s 8 E0 0A 00 40 03 5F 47 00 
18:42:20:6451 Rx 1 0x225 s 8 7E 1E 00 80 03 94 48 00 
18:42:20:6473 Rx 1 0x226 s 8 E0 0A 00 40 03 5F 47 00 
18:42:20:6951 Rx 1 0x225 s 8 7E 1E 00 80 03 98 48 00 
18:42:20:6973 Rx 1 0x226 s 8 E0 0A 00 40 03 5F 47 00 
18:42:20:7451 Rx 1 0x225 s 8 7E 1E 00 80 03 9A 48 00 
18:42:20:7473 Rx 1 0x226 s 8 E0 0A 00 40 03 5F 47 00 
18:42:20:7950 Rx 1 0x225 s 8 7E 1E 00 40 03 59 48 00 
18:42:20:7973 Rx 1 0x226 s 8 E0 0A 00 40 03 5F 47 00 
18:42:20:8450 Rx 1 0x225 s 8 7E 1E 00 40 03 5C 48 00 
18:42:20:8473 Rx 1 0x226 s 8 E0 0A 00 40 03 5F 47 00 
18:42:20:8951 Rx 1 0x225 s 8 7E 1E 00 40 03 5F 48 00 
18:42:20:8973 Rx 1 0x226 s 8 E0 0A 00 40 03 5F 47 00 
18:42:20:9451 Rx 1 0x225 s 8 7E 1E 00 40 03 5F 48 00 
18:42:20:9473 Rx 1 0x226 s 8 E0 0A 00 40 03 5F 47 00 
18:42:20:9951 Rx 1 0x225 s 8 7E 1E 00 40 03 5F 48 00 
18:42:20:9974 Rx 1 0x226 s 8 E0 0A 00 40 03 5F 47 00 
18:42:21:0451 Rx 1 0x225 s 8 7E 1E 00 40 03 5F 48 00 
18:42:21:0474 Rx 1 0x226 s 8 E0 0A 00 40 03 5F 47 00 
18:42:21:0951 Rx 1 0x225 s 8 7E 1E 00 40 03 5F 48 00 
18:42:21:0974 Rx 1 0x226 s 8 E0 0A 00 40 03 5F 47 00 
18:42:21:1451 Rx 1 0x225 s 8 7E 1E 00 40 03 5F 48 00 
18:42:21:1474 Rx 1 0x226 s 8 E0 0A 00 40 03 5F 47 00 
18:42:21:1951 Rx 1 0x225 s 8 7E 1E 00 40 03 5F 48 00 
18:42:21:1974 Rx 1 0x226 s 8 E0 0A 00 40 03 5F 47 00 
18:42:21:2451 Rx 1 0x225 s 8 7E 1E 00 40 03 5F 48 00 
18:42:21:2474 Rx 1 0x226 s 8 E0 0A 00 40 03 5F 47 00 
18:42:21:2951 Rx 1 0x225 s 8 7E 1E 00 40 03 5F 48 00 
18:42:21:2974 Rx 1 0x226 s 8 E0 0A 00 40 03 5F 47 00 
18:42:21:3451 Rx 1 0x225 s 8 7E 1E 00 40 03 5F 48 00 
18:42:21:3474 Rx 1 0x226 s 8 E0 0A 00 40 03 5F 47 00 
18:42:21:3951 Rx 1 0x225 s 8 7E 1E 00 40 03 5F 48 00 
18:42:21:3974 Rx 1 0x226 s 8 E0 0A 00 40 03 5F 47 00 
18:42:21:4451 Rx 1 0x225 s 8 7E 1E 00 40 03 5F 48 00 
18:42:21:4474 Rx 1 0x226 s 8 E0 0A 00 40 03 5F 47 00 
18:42:21:4952 Rx 1 0x225 s 8 7E 1E 00 40 03 5F 48 00 
18:42:21:4974 Rx 1 0x226 s 8 E0 0A 00 40 03 5F 47 00 
18:42:21:5452 Rx 1 0x225 s 8 7E 1E 00 40 03 5F 48 00 
18:42:21:5474 Rx 1 0x226 s 8 E0 0A 00 40 03 5F 47 00 
18:42:21:5952 Rx 1 0x225 s 8 7E 1E 00 40 03 5F 48 00 
18:42:21:5975 Rx 1 0x226 s 8 E0 0A 00 80 03 5F 47 00 
18:42:21:6452 Rx 1 0x225 s 8 7E 1E 00 40 03 5F 48 00 
18:42:21:6475 Rx 1 0x226 s 8 E0 0A 00 80 03 5F 47 00 
18:42:21:6952 Rx 1 0x225 s 8 7E 1E 00 40 03 5F 48 00 
18:42:21:6975 Rx 1 0x226 s 8 E0 0A 00 80 03 5F 47 00 
18:42:21:7452 Rx 1 0x225 s 8 7E 1E 00 40 03 5F 48 00 
18:42:21:7475 Rx 1 0x226 s 8 E0 0A 00 80 03 60 47 00 
18:42:21:7953 Rx 1 0x225 s 8 7E 1E 00 40 03 5F 48 00 
18:42:21:7975 Rx 1 0x226 s 8 E0 0A 00 80 03 61 47 00 
18:42:21:8453 Rx 1 0x225 s 8 7E 1E 00 40 03 5F 48 00 
18:42:21:8475 Rx 1 0x226 s 8 E0 0A 00 80 03 64 47 00 
18:42:21:8953 Rx 1 0x225 s 8 7E 1E 00 40 03 5F 48 00 
18:42:21:8975 Rx 1 0x226 s 8 E0 0A 00 80 03 69 47 00 
18:42:21:9453 Rx 1 0x225 s 8 7E 1E 00 40 03 5F 48 00 
18:42:21:9475 Rx 1 0x226 s 8 E0 0A 00 80 03 6F 47 00 
18:42:21:9953 Rx 1 0x225 s 8 7E 1E 00 40 03 5F 48 00 
18:42:21:9975 Rx 1 0x226 s 8 E0 0A 00 80 03 76 47 00 
18:42:22:0453 Rx 1 0x225 s 8 7E 1E 00 40 03 5F 48 00 
18:42:22:0475 Rx 1 0x226 s 8 E0 0A 00 80 03 7D 47 00 
18:42:22:0953 Rx 1 0x225 s 8 7E 1E 00 40 03 5F 48 00 
18:42:22:0976 Rx 1 0x226 s 8 E0 0A 00 80 03 81 47 00 
18:42:22:1453 Rx 1 0x225 s 8 7E 1E 00 40 03 5F 48 00 
18:42:22:1476 Rx 1 0x226 s 8 E0 0A 00 80 03 82 47 00 
18:42:22:1953 Rx 1 0x225 s 8 7E 1E 00 40 03 5F 48 00 
18:42:22:1976 Rx 1 0x226 s 8 DF 0A 00 80 03 84 47 00 
18:42:22:2453 Rx 1 0x225 s 8 7E 1E 00 40 03 5F 48 00 
18:42:22:2476 Rx 1 0x226 s 8 E0 0A 00 80 03 85 47 00 
18:42:22:2953 Rx 1 0x225 s 8 7E 1E 00 40 03 5F 48 00 
18:42:22:2976 Rx 1 0x226 s 8 E0 0A 00 80 03 86 47 00 
18:42:22:3453 Rx 1 0x225 s 8 7E 1E 00 40 03 5F 48 00 
18:42:22:3476 Rx 1 0x226 s 8 E0 0A 00 80 03 87 47 00 
18:42:22:3953 Rx 1 0x225 s 8 7E 1E 00 40 03 5F 48 00 
18:42:22:3976 Rx 1 0x226 s 8 DF 0A 00 80 03 88 47 00 
18:42:22:4454 Rx 1 0x225 s 8 7E 1E 00 40 03 5F 48 00 
18:42:22:4476 Rx 1 0x226 s 8 E0 0A 00 80 03 8A 47 00 
18:42:22:4954 Rx 1 0x225 s 8 7E 1E 00 40 03 5F 48 00 
18:42:22:4976 Rx 1 0x226 s 8 DF 0A 00 80 03 8F 47 00 
18:42:22:5454 Rx 1 0x225 s 8 7E 1E 00 40 03 5F 48 00 
18:42:22:5476 Rx 1 0x226 s 8 E0 0A 00 80 03 93 47 00 
18:42:22:5954 Rx 1 0x225 s 8 7E 1E 00 40 03 5F 48 00 
18:42:22:5977 Rx 1 0x226 s 8 DF 0A 00 80 03 95 47 00 
18:42:22:6454 Rx 1 0x225 s 8 7E 1E 00 40 03 5F 48 00 
18:42:22:6476 Rx 1 0x226 s 8 E0 0A 00 00 03 86 47 00 
18:42:22:6954 Rx 1 0x225 s 8 7E 1E 00 40 03 5F 48 00 
18:42:22:6976 Rx 1 0x226 s 8 E0 0A 00 40 03 5A 47 00 
18:42:22:7454 Rx 1 0x225 s 8 7E 1E 00 40 03 5F 48 00 
18:42:22:7476 Rx 1 0x226 s 8 E0 0A 00 40 03 5F 47 00 
18:42:22:7954 Rx 1 0x225 s 8 7E 1E 00 40 03 5F 48 00 
18:42:22:7976 Rx 1 0x226 s 8 E0 0A 00 40 03 5F 47 00 
18:42:22:8454 Rx 1 0x225 s 8 7E 1E 00 40 03 5F 48 00 
18:42:22:8476 Rx 1 0x226 s 8 E0 0A 00 40 03 5F 47 00 
18:42:22:8954 Rx 1 0x225 s 8 7E 1E 00 80 03 5F 48 00 
18:42:22:8977 Rx 1 0x226 s 8 E0 0A 00 40 03 5F 47 00 
18:42:22:9454 Rx 1 0x225 s 8 7E 1E 00 80 03 5F 48 00 
18:42:22:9477 Rx 1 0x226 s 8 E0 0A 00 40 03 5F 47 00 
18:42:22:9954 Rx 1 0x225 s 8 7E 1E 00 80 03 5F 48 00 
18:42:22:9977 Rx 1 0x226 s 8 E0 0A 00 40 03 5F 47 00 
18:42:23:0454 Rx 1 0x225 s 8 7E 1E 00 80 03 5F 48 00 
18:42:23:0477 Rx 1 0x226 s 8 E0 0A 00 40 03 5F 47 00 
18:42:23:0954 Rx 1 0x225 s 8 7E 1E 00 80 03 5F 48 00 
18:42:23:0977 Rx 1 0x226 s 8 E0 0A 00 40 03 5F 47 00 
18:42:23:1455 Rx 1 0x225 s 8 7E 1E 00 80 03 5F 48 00 
18:42:23:1477 Rx 1 0x226 s 8 E0 0A 00 40 03 5F 47 00 
18:42:23:1955 Rx 1 0x225 s 8 7E 1E 00 80 03 5F 48 00 
18:42:23:1977 Rx 1 0x226 s 8 E0 0A 00 40 03 5F 47 00 
18:42:23:2455 Rx 1 0x225 s 8 7E 1E 00 80 03 5F 48 00 
18:42:23:2477 Rx 1 0x226 s 8 E0 0A 00 40 03 5F 47 00 
18:42:23:2955 Rx 1 0x225 s 8 7E 1E 00 80 03 5F 48 00 
18:42:23:2977 Rx 1 0x226 s 8 E0 0A 00 40 03 5F 47 00 
18:42:23:3455 Rx 1 0x225 s 8 7E 1E 00 80 03 5F 48 00 
18:42:23:3477 Rx 1 0x226 s 8 E0 0A 00 40 03 5F 47 00 
18:42:23:3955 Rx 1 0x225 s 8 7E 1E 00 80 03 5F 48 00 
18:42:23:3977 Rx 1 0x226 s 8 E0 0A 00 40 03 5F 47 00 
18:42:23:4455 Rx 1 0x225 s 8 7E 1E 00 80 03 5F 48 00 
18:42:23:4477 Rx 1 0x226 s 8 E0 0A 00 40 03 5F 47 00 
18:42:23:4956 Rx 1 0x225 s 8 7E 1E 00 80 03 5F 48 00 
18:42:23:4978 Rx 1 0x226 s 8 E0 0A 00 40 03 5F 47 00 
18:42:23:5455 Rx 1 0x225 s 8 7E 1E 00 80 03 5F 48 00 
18:42:23:5478 Rx 1 0x226 s 8 E0 0A 00 40 03 5F 47 00 
18:42:23:5956 Rx 1 0x225 s 8 7E 1E 00 80 03 5F 48 00 
18:42:23:5978 Rx 1 0x226 s 8 E0 0A 00 40 03 5F 47 00 
18:42:23:6456 Rx 1 0x225 s 8 7E 1E 00 80 03 5F 48 00 
18:42:23:6478 Rx 1 0x226 s 8 E0 0A 00 40 03 5F 47 00 
18:42:23:6956 Rx 1 0x225 s 8 7E 1E 00 80 03 5F 48 00 
18:42:23:6978 Rx 1 0x226 s 8 E0 0A 00 40 03 5F 47 00 
18:42:23:7456 Rx 1 0x225 s 8 7E 1E 00 80 03 5F 48 00 
18:42:23:7478 Rx 1 0x226 s 8 E0 0A 00 40 03 5F 47 00 
18:42:23:7956 Rx 1 0x225 s 8 7E 1E 00 80 03 5F 48 00 
18:42:23:7978 Rx 1 0x226 s 8 E0 0A 00 40 03 5F 47 00 
18:42:23:8456 Rx 1 0x225 s 8 7E 1E 00 80 03 5F 48 00 
18:42:23:8478 Rx 1 0x226 s 8 E0 0A 00 40 03 5F 47 00 
18:42:23:8956 Rx 1 0x225 s 8 7E 1E 00 80 03 5F 48 00 
18:42:23:8979 Rx 1 0x226 s 8 E0 0A 00 40 03 5F 47 00 
18:42:23:9456 Rx 1 0x225 s 8 7E 1E 00 80 03 60 48 00 
18:42:23:9479 Rx 1 0x226 s 8 E0 0A 00 40 03 5F 47 00 
18:42:23:9956 Rx 1 0x225 s 8 7E 1E 00 80 03 60 48 00 
18:42:23:9979 Rx 1 0x226 s 8 E0 0A 00 40 03 5F 47 00 
18:42:24:0456 Rx 1 0x225 s 8 7E 1E 00 80 03 61 48 00 
18:42:24:0479 Rx 1 0x226 s 8 E0 0A 00 40 03 5F 47 00 
18:42:24:0956 Rx 1 0x225 s 8 7E 1E 00 80 03 63 48 00 
18:42:24:0979 Rx 1 0x226 s 8 E0 0A 00 40 03 5F 47 00 
18:42:24:1221 Tx 1 0x220 s 8 40 FA CF 39 00 00 00 00 
18:42:24:1456 Rx 1 0x225 s 8 7E 1E 00 80 03 65 48 00 
18:42:24:1479 Rx 1 0x226 s 8 E0 0A 00 40 03 5F 47 00 
18:42:24:1956 Rx 1 0x225 s 8 7E 1E 00 80 03 6A 48 00 
18:42:24:1979 Rx 1 0x226 s 8 E0 0A 00 40 03 5F 47 00 
18:42:24:2457 Rx 1 0x225 s 8 7E 1E 00 80 03 6D 48 00 
18:42:24:2479 Rx 1 0x226 s 8 E0 0A 00 40 03 5F 47 00 
18:42:24:2957 Rx 1 0x225 s 8 7E 1E 00 80 03 6F 48 00 
18:42:24:2979 Rx 1 0x226 s 8 E0 0A 00 40 03 5F 47 00 
18:42:24:3457 Rx 1 0x225 s 8 7E 1E 00 80 03 70 48 00 
18:42:24:3479 Rx 1 0x226 s 8 E0 0A 00 40 03 5F 47 00 
18:42:24:3957 Rx 1 0x225 s 8 7E 1E 00 80 03 71 48 00 
18:42:24:3979 Rx 1 0x226 s 8 E0 0A 00 40 03 5F 47 00 
18:42:24:4457 Rx 1 0x225 s 8 7E 1E 00 80 03 72 48 00 
18:42:24:4479 Rx 1 0x226 s 8 E0 0A 00 40 03 5F 47 00 
18:42:24:4957 Rx 1 0x225 s 8 7E 1E 00 80 03 72 48 00 
18:42:24:4979 Rx 1 0x226 s 8 E0 0A 00 40 03 5F 47 00 
18:42:24:5457 Rx 1 0x225 s 8 7E 1E 00 80 03 73 48 00 
18:42:24:5479 Rx 1 0x226 s 8 E0 0A 00 40 03 5F 47 00 
18:42:24:5957 Rx 1 0x225 s 8 7E 1E 00 80 03 74 48 00 
18:42:24:5979 Rx 1 0x226 s 8 E0 0A 00 40 03 5F 47 00 
18:42:24:6457 Rx 1 0x225 s 8 7E 1E 00 80 03 75 48 00 
18:42:24:6479 Rx 1 0x226 s 8 E0 0A 00 40 03 5F 47 00 
18:42:24:6957 Rx 1 0x225 s 8 7E 1E 00 80 03 77 48 00 
18:42:24:6980 Rx 1 0x226 s 8 E0 0A 00 40 03 5F 47 00 
18:42:24:7457 Rx 1 0x225 s 8 7E 1E 00 80 03 79 48 00 
18:42:24:7480 Rx 1 0x226 s 8 E0 0A 00 40 03 5F 47 00 
18:42:24:7957 Rx 1 0x225 s 8 7E 1E 00 80 03 7C 48 00 
18:42:24:7980 Rx 1 0x226 s 8 10 0B 59 80 03 08 47 00 
18:42:24:8457 Rx 1 0x225 s 8 7E 1E 00 80 03 80 48 00 
18:42:24:8480 Rx 1 0x226 s 8 83 0C EA 80 03 08 47 00 
18:42:24:8958 Rx 1 0x225 s 8 7E 1E 00 80 03 82 48 00 
18:42:24:8980 Rx 1 0x226 s 8 76 0E E0 80 03 09 47 00 
18:42:24:9458 Rx 1 0x225 s 8 7E 1E 00 80 03 84 48 00 
18:42:24:9480 Rx 1 0x226 s 8 EE 0F D9 80 03 09 47 00 
18:42:24:9958 Rx 1 0x225 s 8 7E 1E 00 80 03 86 48 00 
18:42:24:9980 Rx 1 0x226 s 8 FE 11 F2 80 03 08 47 00 
18:42:25:0458 Rx 1 0x225 s 8 7E 1E 00 80 03 88 48 00 
18:42:25:0480 Rx 1 0x226 s 8 63 13 B9 80 03 08 47 00 
18:42:25:0958 Rx 1 0x225 s 8 7E 1E 00 80 03 8C 48 00 
18:42:25:0980 Rx 1 0x226 s 8 61 15 F0 40 03 08 47 00 
18:42:25:1458 Rx 1 0x225 s 8 7E 1E 00 80 03 90 48 00 
18:42:25:1480 Rx 1 0x226 s 8 87 15 00 40 03 76 47 00 
18:42:25:1958 Rx 1 0x225 s 8 7E 1E 00 80 03 94 48 00 
18:42:25:1980 Rx 1 0x226 s 8 87 15 00 40 03 68 47 00 
18:42:25:2458 Rx 1 0x225 s 8 7E 1E 00 80 03 98 48 00 
18:42:25:2480 Rx 1 0x226 s 8 87 15 00 40 03 68 47 00 
18:42:25:2958 Rx 1 0x225 s 8 7E 1E 00 80 03 9A 48 00 
18:42:25:2980 Rx 1 0x226 s 8 87 15 00 40 03 68 47 00 
18:42:25:3458 Rx 1 0x225 s 8 7E 1E 00 40 03 59 48 00 
18:42:25:3481 Rx 1 0x226 s 8 87 15 00 40 03 68 47 00 
18:42:25:3958 Rx 1 0x225 s 8 7E 1E 00 40 03 5C 48 00 
18:42:25:3981 Rx 1 0x226 s 8 88 15 00 40 03 68 47 00 
18:42:25:4458 Rx 1 0x225 s 8 7E 1E 00 40 03 5F 48 00 
18:42:25:4481 Rx 1 0x226 s 8 87 15 00 40 03 68 47 00 
18:42:25:4958 Rx 1 0x225 s 8 7E 1E 00 40 03 5F 48 00 
18:42:25:4981 Rx 1 0x226 s 8 87 15 00 40 03 68 47 00 
18:42:25:5458 Rx 1 0x225 s 8 7E 1E 00 40 03 5F 48 00 
18:42:25:5481 Rx 1 0x226 s 8 87 15 00 40 03 68 47 00 
18:42:25:5959 Rx 1 0x225 s 8 7E 1E 00 40 03 5F 48 00 
18:42:25:5981 Rx 1 0x226 s 8 87 15 00 40 03 68 47 00 
18:42:25:6459 Rx 1 0x225 s 8 7E 1E 00 40 03 5F 48 00 
18:42:25:6482 Rx 1 0x226 s 8 87 15 00 40 03 68 47 00 
18:42:25:6959 Rx 1 0x225 s 8 7E 1E 00 40 03 5F 48 00 
18:42:25:6982 Rx 1 0x226 s 8 87 15 00 40 03 68 47 00 
18:42:25:7459 Rx 1 0x225 s 8 7E 1E 00 40 03 5F 48 00 
18:42:25:7482 Rx 1 0x226 s 8 88 15 00 40 03 68 47 00 
18:42:25:7959 Rx 1 0x225 s 8 7E 1E 00 40 03 5F 48 00 
18:42:25:7982 Rx 1 0x226 s 8 87 15 00 40 03 68 47 00 
18:42:25:8459 Rx 1 0x225 s 8 7E 1E 00 40 03 5F 48 00 
18:42:25:8482 Rx 1 0x226 s 8 87 15 00 40 03 68 47 00 
18:42:25:8959 Rx 1 0x225 s 8 7E 1E 00 40 03 5F 48 00 
18:42:25:8982 Rx 1 0x226 s 8 87 15 00 40 03 68 47 00 
18:42:25:9459 Rx 1 0x225 s 8 7E 1E 00 40 03 5F 48 00 
18:42:25:9482 Rx 1 0x226 s 8 87 15 00 40 03 68 47 00 
18:42:25:9959 Rx 1 0x225 s 8 7E 1E 00 40 03 5F 48 00 
18:42:25:9982 Rx 1 0x226 s 8 87 15 00 40 03 68 47 00 
18:42:26:0459 Rx 1 0x225 s 8 7E 1E 00 40 03 5F 48 00 
18:42:26:0482 Rx 1 0x226 s 8 87 15 00 40 03 68 47 00 
18:42:26:0959 Rx 1 0x225 s 8 7E 1E 00 40 03 5F 48 00 
18:42:26:0982 Rx 1 0x226 s 8 87 15 00 40 03 68 47 00 
18:42:26:1459 Rx 1 0x225 s 8 7E 1E 00 40 03 5F 48 00 
18:42:26:1482 Rx 1 0x226 s 8 87 15 00 40 03 68 47 00 
18:42:26:1959 Rx 1 0x225 s 8 7E 1E 00 40 03 5F 48 00 
18:42:26:1982 Rx 1 0x226 s 8 88 15 00 40 03 68 47 00 
18:42:26:2459 Rx 1 0x225 s 8 7E 1E 00 40 03 5F 48 00 
18:42:26:2482 Rx 1 0x226 s 8 87 15 00 40 03 68 47 00 
18:42:26:2960 Rx 1 0x225 s 8 7E 1E 00 40 03 5F 48 00 
18:42:26:2983 Rx 1 0x226 s 8 87 15 00 40 03 68 47 00 
18:42:26:3460 Rx 1 0x225 s 8 7E 1E 00 40 03 5F 48 00 
18:42:26:3483 Rx 1 0x226 s 8 88 15 00 40 03 68 47 00 
18:42:26:3960 Rx 1 0x225 s 8 7E 1E 00 40 03 5F 48 00 
18:42:26:3983 Rx 1 0x226 s 8 87 15 00 40 03 68 47 00 
18:42:26:4460 Rx 1 0x225 s 8 7E 1E 00 40 03 5F 48 00 
18:42:26:4483 Rx 1 0x226 s 8 88 15 00 40 03 68 47 00 
18:42:26:4960 Rx 1 0x225 s 8 7E 1E 00 40 03 5F 48 00 
18:42:26:4983 Rx 1 0x226 s 8 88 15 00 40 03 68 47 00 
18:42:26:5460 Rx 1 0x225 s 8 7E 1E 00 40 03 5F 48 00 
18:42:26:5483 Rx 1 0x226 s 8 87 15 00 40 03 68 47 00 
18:42:26:5960 Rx 1 0x225 s 8 7E 1E 00 40 03 5F 48 00 
18:42:26:5983 Rx 1 0x226 s 8 88 15 00 40 03 68 47 00 
18:42:26:6460 Rx 1 0x225 s 8 7E 1E 00 40 03 5F 48 00 
18:42:26:6483 Rx 1 0x226 s 8 87 15 00 40 03 68 47 00 
18:42:26:6960 Rx 1 0x225 s 8 7E 1E 00 40 03 5F 48 00 
18:42:26:6983 Rx 1 0x226 s 8 87 15 00 40 03 68 47 00 
18:42:26:7460 Rx 1 0x225 s 8 7E 1E 00 40 03 5F 48 00 
18:42:26:7483 Rx 1 0x226 s 8 87 15 00 40 03 68 47 00 
18:42:26:7961 Rx 1 0x225 s 8 7E 1E 00 40 03 5F 48 00 
18:42:26:7983 Rx 1 0x226 s 8 87 15 00 40 03 68 47 00 
18:42:26:8461 Rx 1 0x225 s 8 7E 1E 00 40 03 5F 48 00 
18:42:26:8484 Rx 1 0x226 s 8 87 15 00 40 03 68 47 00 
18:42:26:8961 Rx 1 0x225 s 8 7E 1E 00 40 03 5F 48 00 
18:42:26:8984 Rx 1 0x226 s 8 87 15 00 40 03 68 47 00 
18:42:26:9461 Rx 1 0x225 s 8 7E 1E 00 40 03 5F 48 00 
18:42:26:9484 Rx 1 0x226 s 8 87 15 00 40 03 68 47 00 
18:42:26:9961 Rx 1 0x225 s 8 7E 1E 00 40 03 5F 48 00 
18:42:26:9984 Rx 1 0x226 s 8 87 15 00 40 03 68 47 00 
18:42:27:0461 Rx 1 0x225 s 8 7E 1E 00 40 03 5F 48 00 
18:42:27:0484 Rx 1 0x226 s 8 87 15 00 40 03 68 47 00 
18:42:27:0961 Rx 1 0x225 s 8 7E 1E 00 40 03 5F 48 00 
18:42:27:0984 Rx 1 0x226 s 8 87 15 00 40 03 68 47 00 
18:42:27:1461 Rx 1 0x225 s 8 7E 1E 00 40 03 5F 48 00 
18:42:27:1484 Rx 1 0x226 s 8 87 15 00 40 03 68 47 00 
18:42:27:1961 Rx 1 0x225 s 8 7E 1E 00 40 03 5F 48 00 
18:42:27:1984 Rx 1 0x226 s 8 87 15 00 40 03 68 47 00 
18:42:27:2461 Rx 1 0x225 s 8 7E 1E 00 40 03 5F 48 00 
18:42:27:2484 Rx 1 0x226 s 8 12 16 9C 80 03 08 47 00 
18:42:27:2961 Rx 1 0x225 s 8 7E 1E 00 40 03 5F 48 00 
18:42:27:2984 Rx 1 0x226 s 8 E6 17 FE 80 03 08 47 00 
18:42:27:3461 Rx 1 0x225 s 8 7E 1E 00 40 03 5F 48 00 
18:42:27:3485 Rx 1 0x226 s 8 9B 19 A0 80 03 08 47 00 
18:42:27:3962 Rx 1 0x225 s 8 7E 1E 00 40 03 5F 48 00 
18:42:27:3985 Rx 1 0x226 s 8 58 1B FA 80 03 08 47 00 
18:42:27:4462 Rx 1 0x225 s 8 7E 1E 00 80 03 5F 48 00 
18:42:27:4485 Rx 1 0x226 s 8 25 1D A9 80 03 09 47 00 
18:42:27:4962 Rx 1 0x225 s 8 7E 1E 00 80 03 5F 48 00 
18:42:27:4985 Rx 1 0x226 s 8 C4 1E FA 80 03 09 47 00 
18:42:27:5462 Rx 1 0x225 s 8 7E 1E 00 80 03 5F 48 00 
18:42:27:5485 Rx 1 0x226 s 8 31 20 07 40 03 55 47 00 
18:42:27:5962 Rx 1 0x225 s 8 7E 1E 00 80 03 5F 48 00 
18:42:27:5985 Rx 1 0x226 s 8 31 20 00 40 03 6D 47 00 
18:42:27:6462 Rx 1 0x225 s 8 7E 1E 00 80 03 5F 48 00 
18:42:27:6485 Rx 1 0x226 s 8 31 20 00 40 03 67 47 00 
18:42:27:6962 Rx 1 0x225 s 8 7E 1E 00 80 03 5F 48 00 
18:42:27:6985 Rx 1 0x226 s 8 31 20 00 40 03 67 47 00 
18:42:27:7462 Rx 1 0x225 s 8 7E 1E 00 80 03 5F 48 00 
18:42:27:7485 Rx 1 0x226 s 8 31 20 00 40 03 67 47 00 
18:42:27:7963 Rx 1 0x225 s 8 7E 1E 00 80 03 5F 48 00 
18:42:27:7985 Rx 1 0x226 s 8 31 20 00 40 03 67 47 00 
18:42:27:8463 Rx 1 0x225 s 8 7E 1E 00 80 03 5F 48 00 
18:42:27:8485 Rx 1 0x226 s 8 31 20 00 40 03 67 47 00 
18:42:27:8963 Rx 1 0x225 s 8 7E 1E 00 80 03 5F 48 00 
18:42:27:8985 Rx 1 0x226 s 8 31 20 00 40 03 67 47 00 
18:42:27:9463 Rx 1 0x225 s 8 7E 1E 00 80 03 5F 48 00 
18:42:27:9485 Rx 1 0x226 s 8 31 20 00 40 03 67 47 00 
18:42:27:9963 Rx 1 0x225 s 8 7E 1E 00 80 03 5F 48 00 
18:42:27:9985 Rx 1 0x226 s 8 31 20 00 40 03 67 47 00 
18:42:28:0463 Rx 1 0x225 s 8 7E 1E 00 80 03 5F 48 00 
18:42:28:0485 Rx 1 0x226 s 8 31 20 00 40 03 67 47 00 
18:42:28:0963 Rx 1 0x225 s 8 7E 1E 00 80 03 5F 48 00 
18:42:28:0986 Rx 1 0x226 s 8 31 20 00 40 03 67 47 00 
18:42:28:1463 Rx 1 0x225 s 8 7E 1E 00 80 03 5F 48 00 
18:42:28:1486 Rx 1 0x226 s 8 31 20 00 40 03 67 47 00 
18:42:28:1963 Rx 1 0x225 s 8 7E 1E 00 80 03 5F 48 00 
18:42:28:1986 Rx 1 0x226 s 8 31 20 00 40 03 67 47 00 
18:42:28:2463 Rx 1 0x225 s 8 7E 1E 00 80 03 5F 48 00 
18:42:28:2486 Rx 1 0x226 s 8 31 20 00 40 03 67 47 00 
18:42:28:2963 Rx 1 0x225 s 8 7E 1E 00 80 03 5F 48 00 
18:42:28:2986 Rx 1 0x226 s 8 31 20 00 40 03 67 47 00 
18:42:28:3463 Rx 1 0x225 s 8 7E 1E 00 80 03 5F 48 00 
18:42:28:3486 Rx 1 0x226 s 8 31 20 00 40 03 67 47 00 
18:42:28:3963 Rx 1 0x225 s 8 7E 1E 00 80 03 5F 48 00 
18:42:28:3986 Rx 1 0x226 s 8 31 20 00 40 03 67 47 00 
18:42:28:4464 Rx 1 0x225 s 8 7E 1E 00 80 03 5F 48 00 
18:42:28:4486 Rx 1 0x226 s 8 31 20 00 40 03 67 47 00 
18:42:28:4964 Rx 1 0x225 s 8 7E 1E 00 80 03 60 48 00 
18:42:28:4986 Rx 1 0x226 s 8 31 20 00 40 03 67 47 00 
18:42:28:5464 Rx 1 0x225 s 8 7E 1E 00 80 03 60 48 00 
18:42:28:5486 Rx 1 0x226 s 8 31 20 00 40 03 67 47 00 
18:42:28:5964 Rx 1 0x225 s 8 7E 1E 00 80 03 61 48 00 
18:42:28:5986 Rx 1 0x226 s 8 31 20 00 40 03 67 47 00 
18:42:28:6464 Rx 1 0x225 s 8 7E 1E 00 80 03 63 48 00 
18:42:28:6486 Rx 1 0x226 s 8 31 20 00 40 03 67 47 00 
18:42:28:6964 Rx 1 0x225 s 8 7E 1E 00 80 03 65 48 00 
18:42:28:6987 Rx 1 0x226 s 8 31 20 00 40 03 67 47 00 
18:42:28:7464 Rx 1 0x225 s 8 7E 1E 00 80 03 69 48 00 
18:42:28:7487 Rx 1 0x226 s 8 31 20 00 40 03 67 47 00 
18:42:28:7964 Rx 1 0x225 s 8 7E 1E 00 80 03 6D 48 00 
18:42:28:7987 Rx 1 0x226 s 8 31 20 00 40 03 67 47 00 
18:42:28:8464 Rx 1 0x225 s 8 7E 1E 00 80 03 6F 48 00 
18:42:28:8487 Rx 1 0x226 s 8 31 20 00 40 03 67 47 00 
18:42:28:8964 Rx 1 0x225 s 8 7E 1E 00 80 03 70 48 00 
18:42:28:8987 Rx 1 0x226 s 8 31 20 00 40 03 67 47 00 
18:42:28:9464 Rx 1 0x225 s 8 7E 1E 00 80 03 71 48 00 
18:42:28:9487 Rx 1 0x226 s 8 31 20 00 40 03 67 47 00 
18:42:28:9964 Rx 1 0x225 s 8 7E 1E 00 80 03 72 48 00 
18:42:28:9987 Rx 1 0x226 s 8 31 20 00 40 03 67 47 00 
18:42:29:0464 Rx 1 0x225 s 8 7E 1E 00 80 03 72 48 00 
18:42:29:0487 Rx 1 0x226 s 8 31 20 00 40 03 67 47 00 
18:42:29:0965 Rx 1 0x225 s 8 7E 1E 00 80 03 73 48 00 
18:42:29:0987 Rx 1 0x226 s 8 31 20 00 40 03 67 47 00 
18:42:29:1465 Rx 1 0x225 s 8 7E 1E 00 80 03 75 48 00 
18:42:29:1487 Rx 1 0x226 s 8 31 20 00 40 03 67 47 00 
18:42:29:1965 Rx 1 0x225 s 8 7E 1E 00 80 03 76 48 00 
18:42:29:1987 Rx 1 0x226 s 8 31 20 00 40 03 67 47 00 
18:42:29:2465 Rx 1 0x225 s 8 7E 1E 00 80 03 78 48 00 
18:42:29:2487 Rx 1 0x226 s 8 31 20 00 40 03 67 47 00 
18:42:29:2965 Rx 1 0x225 s 8 7E 1E 00 80 03 7A 48 00 
18:42:29:2987 Rx 1 0x226 s 8 31 20 00 40 03 67 47 00 
18:42:29:3465 Rx 1 0x225 s 8 7E 1E 00 80 03 7D 48 00 
18:42:29:3487 Rx 1 0x226 s 8 31 20 00 40 03 67 47 00 
18:42:29:3965 Rx 1 0x225 s 8 7E 1E 00 80 03 80 48 00 
18:42:29:3988 Rx 1 0x226 s 8 31 20 00 40 03 67 47 00 
18:42:29:4465 Rx 1 0x225 s 8 7E 1E 00 80 03 82 48 00 
18:42:29:4488 Rx 1 0x226 s 8 31 20 00 40 03 67 47 00 
18:42:29:4966 Rx 1 0x225 s 8 7E 1E 00 80 03 84 48 00 
18:42:29:4988 Rx 1 0x226 s 8 31 20 00 40 03 67 47 00 
18:42:29:5466 Rx 1 0x225 s 8 7E 1E 00 80 03 86 48 00 
18:42:29:5488 Rx 1 0x226 s 8 31 20 00 40 03 67 47 00 
18:42:29:5966 Rx 1 0x225 s 8 7E 1E 00 80 03 88 48 00 
18:42:29:5988 Rx 1 0x226 s 8 31 20 00 40 03 67 47 00 
18:42:29:6466 Rx 1 0x225 s 8 7E 1E 00 80 03 8B 48 00 
18:42:29:6488 Rx 1 0x226 s 8 31 20 00 40 03 67 47 00 
18:42:29:6966 Rx 1 0x225 s 8 7E 1E 00 80 03 8F 48 00 
18:42:29:6988 Rx 1 0x226 s 8 BD 20 8E 80 03 08 47 00 
18:42:29:7466 Rx 1 0x225 s 8 7E 1E 00 80 03 94 48 00 
18:42:29:7489 Rx 1 0x226 s 8 83 22 FA 80 03 08 47 00 
18:42:29:7966 Rx 1 0x225 s 8 7E 1E 00 80 03 97 48 00 
18:42:29:7989 Rx 1 0x226 s 8 43 24 A5 80 03 08 47 00 
18:42:29:8466 Rx 1 0x225 s 8 7E 1E 00 80 03 9A 48 00 
18:42:29:8489 Rx 1 0x226 s 8 DB 25 EC 80 03 08 47 00 
18:42:29:8966 Rx 1 0x225 s 8 7E 1E 00 40 03 59 48 00 
18:42:29:8989 Rx 1 0x226 s 8 47 27 81 80 03 08 47 00 
18:42:29:9466 Rx 1 0x225 s 8 7E 1E 00 40 03 5C 48 00 
18:42:29:9489 Rx 1 0x226 s 8 93 28 BA 80 03 08 47 00 
18:42:29:9966 Rx 1 0x225 s 8 7E 1E 00 40 03 5F 48 00 
18:42:29:9989 Rx 1 0x226 s 8 25 29 00 40 03 50 47 00 
18:42:30:0466 Rx 1 0x225 s 8 7E 1E 00 40 03 5F 48 00 
18:42:30:0489 Rx 1 0x226 s 8 25 29 00 40 03 6E 47 00 
18:42:30:0966 Rx 1 0x225 s 8 7E 1E 00 40 03 5F 48 00 
18:42:30:0989 Rx 1 0x226 s 8 25 29 00 40 03 69 47 00 
18:42:30:1466 Rx 1 0x225 s 8 7E 1E 00 40 03 5F 48 00 
18:42:30:1489 Rx 1 0x226 s 8 25 29 00 40 03 69 47 00 
18:42:30:1966 Rx 1 0x225 s 8 7E 1E 00 40 03 5F 48 00 
18:42:30:1989 Rx 1 0x226 s 8 25 29 00 40 03 69 47 00 
18:42:30:2466 Rx 1 0x225 s 8 7E 1E 00 40 03 5F 48 00 
18:42:30:2489 Rx 1 0x226 s 8 25 29 00 40 03 69 47 00 
18:42:30:2966 Rx 1 0x225 s 8 7E 1E 00 40 03 5F 48 00 
18:42:30:2989 Rx 1 0x226 s 8 25 29 00 40 03 69 47 00 
18:42:30:3467 Rx 1 0x225 s 8 7E 1E 00 40 03 5F 48 00 
18:42:30:3489 Rx 1 0x226 s 8 25 29 00 40 03 69 47 00 
18:42:30:3967 Rx 1 0x225 s 8 7E 1E 00 40 03 5F 48 00 
18:42:30:3989 Rx 1 0x226 s 8 25 29 00 40 03 69 47 00 
18:42:30:4467 Rx 1 0x225 s 8 7E 1E 00 40 03 5F 48 00 
18:42:30:4490 Rx 1 0x226 s 8 25 29 00 40 03 68 47 00 
18:42:30:4967 Rx 1 0x225 s 8 7E 1E 00 40 03 5F 48 00 
18:42:30:4990 Rx 1 0x226 s 8 25 29 00 40 03 68 47 00 
18:42:30:5467 Rx 1 0x225 s 8 7E 1E 00 40 03 5F 48 00 
18:42:30:5490 Rx 1 0x226 s 8 25 29 00 40 03 68 47 00 
18:42:30:5967 Rx 1 0x225 s 8 7E 1E 00 40 03 5F 48 00 
